Title: spice test                                                   
Date:  Wed Sep  6 18:56:32 2000 
Plotname:  Harmonic Balance Simulation 
Flags: complex 
No. Variables: 5 
No. Points: 30 
Command:  version 3f5 
Variables:
	0	frequency	frequency
	1	V(1)	voltage
	2	V(2)	voltage
	3	out	voltage
	4	#internal_variable_4	voltage
Values:
0		0.000000000000000e+00,0.000000000000000e+00
	0.000000000000000e+00,0.000000000000000e+00
	0.000000000000000e+00,0.000000000000000e+00
	0.000000000000000e+00,0.000000000000000e+00
	0.000000000000000e+00,0.000000000000000e+00
1		0.000000000000000e+00,0.000000000000000e+00
	-8.992359798766250e-06,0.000000000000000e+00
	8.996855978665730e-02,0.000000000000000e+00
	8.992359798766350e-02,0.000000000000000e+00
	-9.891595778642881e-05,0.000000000000000e+00
2		0.000000000000000e+00,0.000000000000000e+00
	0.000000000000000e+00,0.000000000000000e+00
	0.000000000000000e+00,0.000000000000000e+00
	0.000000000000000e+00,0.000000000000000e+00
	0.000000000000000e+00,0.000000000000000e+00
3		9.999999721724661e+07,0.000000000000000e+00
	0.000000000000000e+00,0.000000000000000e+00
	0.000000000000000e+00,0.000000000000000e+00
	0.000000000000000e+00,0.000000000000000e+00
	0.000000000000000e+00,0.000000000000000e+00
4		9.999999721724661e+07,0.000000000000000e+00
	-1.763685071285400e-06,-4.999889202590390e-01
	-5.194555593100390e-04,-1.098334628088400e-01
	5.077428236740270e-04,1.098887231473940e-01
	-1.034509953085390e-06,-4.998780373118030e-01
5		9.999999721724661e+07,0.000000000000000e+00
	0.000000000000000e+00,0.000000000000000e+00
	0.000000000000000e+00,0.000000000000000e+00
	0.000000000000000e+00,0.000000000000000e+00
	0.000000000000000e+00,0.000000000000000e+00
6		1.999999944344930e+08,0.000000000000000e+00
	0.000000000000000e+00,0.000000000000000e+00
	0.000000000000000e+00,0.000000000000000e+00
	0.000000000000000e+00,0.000000000000000e+00
	0.000000000000000e+00,0.000000000000000e+00
7		1.999999944344930e+08,0.000000000000000e+00
	7.102764002090160e-06,-9.093663445508700e-08
	-7.340326372008160e-02,-9.793997031787511e-05
	-7.336725146300520e-02,-1.138647091241600e-04
	7.813040402299170e-05,-1.000302979005960e-06
8		1.999999944344930e+08,0.000000000000000e+00
	0.000000000000000e+00,0.000000000000000e+00
	0.000000000000000e+00,0.000000000000000e+00
	0.000000000000000e+00,0.000000000000000e+00
	0.000000000000000e+00,0.000000000000000e+00
9		2.999999916517400e+08,0.000000000000000e+00
	0.000000000000000e+00,0.000000000000000e+00
	0.000000000000000e+00,0.000000000000000e+00
	0.000000000000000e+00,0.000000000000000e+00
	0.000000000000000e+00,0.000000000000000e+00
10		2.999999916517400e+08,0.000000000000000e+00
	-4.256366660403670e-08,-2.812866379424900e-06
	-5.679490336591110e-04,2.650596391645400e-02
	5.769143798610440e-04,-2.651960141535790e-02
	-4.682003326444040e-07,-3.094153017367390e-05
11		2.999999916517400e+08,0.000000000000000e+00
	0.000000000000000e+00,0.000000000000000e+00
	0.000000000000000e+00,0.000000000000000e+00
	0.000000000000000e+00,0.000000000000000e+00
	0.000000000000000e+00,0.000000000000000e+00
12		3.999999888689860e+08,0.000000000000000e+00
	0.000000000000000e+00,0.000000000000000e+00
	0.000000000000000e+00,0.000000000000000e+00
	0.000000000000000e+00,0.000000000000000e+00
	0.000000000000000e+00,0.000000000000000e+00
13		3.999999888689860e+08,0.000000000000000e+00
	-1.119684080822010e-08,-3.245549436437170e-08
	9.288779302791330e-05,3.629815313246290e-04
	9.268689781187300e-05,3.628542534692560e-04
	-1.231652488904210e-07,-3.570104380080890e-07
14		3.999999888689860e+08,0.000000000000000e+00
	0.000000000000000e+00,0.000000000000000e+00
	0.000000000000000e+00,0.000000000000000e+00
	0.000000000000000e+00,0.000000000000000e+00
	0.000000000000000e+00,0.000000000000000e+00
15		4.999999860862330e+08,0.000000000000000e+00
	0.000000000000000e+00,0.000000000000000e+00
	0.000000000000000e+00,0.000000000000000e+00
	0.000000000000000e+00,0.000000000000000e+00
	0.000000000000000e+00,0.000000000000000e+00
16		4.999999860862330e+08,0.000000000000000e+00
	-7.682146906938640e-08,-8.048805198821450e-07
	-9.361302014156050e-04,7.844473637456729e-03
	9.404575161153040e-04,-7.844426740204290e-03
	-8.450361597632510e-07,-8.853685718703590e-06
17		4.999999860862330e+08,0.000000000000000e+00
	0.000000000000000e+00,0.000000000000000e+00
	0.000000000000000e+00,0.000000000000000e+00
	0.000000000000000e+00,0.000000000000000e+00
	0.000000000000000e+00,0.000000000000000e+00
18		5.999999833034790e+08,0.000000000000000e+00
	0.000000000000000e+00,0.000000000000000e+00
	0.000000000000000e+00,0.000000000000000e+00
	0.000000000000000e+00,0.000000000000000e+00
	0.000000000000000e+00,0.000000000000000e+00
19		5.999999833034790e+08,0.000000000000000e+00
	-3.818632039388070e-07,6.210625292439721e-08
	3.726592427243030e-03,3.505561233681610e-04
	3.726680004396220e-03,3.530214053334450e-04
	-4.200495243326880e-06,6.831687821683700e-07
20		5.999999833034790e+08,0.000000000000000e+00
	0.000000000000000e+00,0.000000000000000e+00
	0.000000000000000e+00,0.000000000000000e+00
	0.000000000000000e+00,0.000000000000000e+00
	0.000000000000000e+00,0.000000000000000e+00
21		6.999999805207260e+08,0.000000000000000e+00
	0.000000000000000e+00,0.000000000000000e+00
	0.000000000000000e+00,0.000000000000000e+00
	0.000000000000000e+00,0.000000000000000e+00
	0.000000000000000e+00,0.000000000000000e+00
22		6.999999805207260e+08,0.000000000000000e+00
	8.880140811674130e-09,-1.727873358805400e-07
	-5.621656761564810e-04,1.556498768147420e-03
	5.634175423083340e-04,-1.556250150570970e-03
	9.768154892841540e-08,-1.900660694685940e-06
23		6.999999805207260e+08,0.000000000000000e+00
	0.000000000000000e+00,0.000000000000000e+00
	0.000000000000000e+00,0.000000000000000e+00
	0.000000000000000e+00,0.000000000000000e+00
	0.000000000000000e+00,0.000000000000000e+00
24		7.999999777379720e+08,0.000000000000000e+00
	0.000000000000000e+00,0.000000000000000e+00
	0.000000000000000e+00,0.000000000000000e+00
	0.000000000000000e+00,0.000000000000000e+00
	0.000000000000000e+00,0.000000000000000e+00
25		7.999999777379720e+08,0.000000000000000e+00
	-2.503890049927500e-07,3.489148754888200e-08
	2.341507276440910e-03,4.650184321272560e-04
	2.341455776900790e-03,4.671292838020860e-04
	-2.754279054920250e-06,3.838063630377020e-07
26		7.999999777379720e+08,0.000000000000000e+00
	0.000000000000000e+00,0.000000000000000e+00
	0.000000000000000e+00,0.000000000000000e+00
	0.000000000000000e+00,0.000000000000000e+00
	0.000000000000000e+00,0.000000000000000e+00
27		8.999999749552190e+08,0.000000000000000e+00
	0.000000000000000e+00,0.000000000000000e+00
	0.000000000000000e+00,0.000000000000000e+00
	0.000000000000000e+00,0.000000000000000e+00
	0.000000000000000e+00,0.000000000000000e+00
28		8.999999749552190e+08,0.000000000000000e+00
	3.592881010037120e-08,-5.329021606402660e-08
	-4.921877031099590e-04,3.402572397964340e-04
	4.926154375263700e-04,-3.398397183371470e-04
	3.952169111040830e-07,-5.861923767042920e-07
29		8.999999749552190e+08,0.000000000000000e+00
	0.000000000000000e+00,0.000000000000000e+00
	0.000000000000000e+00,0.000000000000000e+00
	0.000000000000000e+00,0.000000000000000e+00
	0.000000000000000e+00,0.000000000000000e+00
