Title: spice test                                                   
Date:  Wed Sep  6 18:56:33 2000 
Plotname:  Harmonic Balance Simulation 
Flags: complex 
No. Variables: 5 
No. Points: 60 
Command:  version 3f5 
Variables:
	0	frequency	frequency
	1	V(1)	voltage
	2	V(2)	voltage
	3	out	voltage
	4	#internal_variable_4	voltage
Values:
0		0.000000000000000e+00,0.000000000000000e+00
	0.000000000000000e+00,0.000000000000000e+00
	0.000000000000000e+00,0.000000000000000e+00
	0.000000000000000e+00,0.000000000000000e+00
	0.000000000000000e+00,0.000000000000000e+00
1		0.000000000000000e+00,0.000000000000000e+00
	-3.230075887223130e-05,0.000000000000000e+00
	3.231690925166780e-01,0.000000000000000e+00
	3.230075887223170e-01,0.000000000000000e+00
	-3.553083475945450e-04,0.000000000000000e+00
2		0.000000000000000e+00,0.000000000000000e+00
	0.000000000000000e+00,0.000000000000000e+00
	0.000000000000000e+00,0.000000000000000e+00
	0.000000000000000e+00,0.000000000000000e+00
	0.000000000000000e+00,0.000000000000000e+00
3		1.099999969389710e+08,0.000000000000000e+00
	0.000000000000000e+00,0.000000000000000e+00
	0.000000000000000e+00,0.000000000000000e+00
	0.000000000000000e+00,0.000000000000000e+00
	0.000000000000000e+00,0.000000000000000e+00
4		1.099999969389710e+08,0.000000000000000e+00
	-2.433919404780620e-05,-4.999625724244430e-01
	-5.073581974241710e-02,-4.371979992100350e-02
	5.403158857994530e-02,4.506344449083100e-02
	-2.493651086948140e-04,-4.995882111312460e-01
5		1.099999969389710e+08,0.000000000000000e+00
	0.000000000000000e+00,0.000000000000000e+00
	0.000000000000000e+00,0.000000000000000e+00
	0.000000000000000e+00,0.000000000000000e+00
	0.000000000000000e+00,0.000000000000000e+00
6		2.199999938779420e+08,0.000000000000000e+00
	0.000000000000000e+00,0.000000000000000e+00
	0.000000000000000e+00,0.000000000000000e+00
	0.000000000000000e+00,0.000000000000000e+00
	0.000000000000000e+00,0.000000000000000e+00
7		2.199999938779420e+08,0.000000000000000e+00
	1.751104328685610e-05,3.392246578211050e-05
	-2.468771117212580e-02,9.608905852435611e-03
	-2.994577822015660e-02,1.291310794682990e-02
	1.926214761554180e-04,3.731471236032150e-04
8		2.199999938779420e+08,0.000000000000000e+00
	0.000000000000000e+00,0.000000000000000e+00
	0.000000000000000e+00,0.000000000000000e+00
	0.000000000000000e+00,0.000000000000000e+00
	0.000000000000000e+00,0.000000000000000e+00
9		3.299999908169140e+08,0.000000000000000e+00
	0.000000000000000e+00,0.000000000000000e+00
	0.000000000000000e+00,0.000000000000000e+00
	0.000000000000000e+00,0.000000000000000e+00
	0.000000000000000e+00,0.000000000000000e+00
10		3.299999908169140e+08,0.000000000000000e+00
	3.033045138914910e-05,3.118938607426310e-06
	-2.314990019389790e-03,1.102225839190700e-02
	2.629159728133690e-03,-1.874718563473350e-02
	3.336349652806400e-04,3.430832468168940e-05
11		3.299999908169140e+08,0.000000000000000e+00
	0.000000000000000e+00,0.000000000000000e+00
	0.000000000000000e+00,0.000000000000000e+00
	0.000000000000000e+00,0.000000000000000e+00
	0.000000000000000e+00,0.000000000000000e+00
12		9.999999721724661e+07,0.000000000000000e+00
	0.000000000000000e+00,0.000000000000000e+00
	0.000000000000000e+00,0.000000000000000e+00
	0.000000000000000e+00,0.000000000000000e+00
	0.000000000000000e+00,0.000000000000000e+00
13		9.999999721724661e+07,0.000000000000000e+00
	-2.087416083316570e-06,-4.999697650891710e-01
	3.037530775666300e-03,-2.995639386900050e-01
	-3.071715328794150e-03,2.997141722262830e-01
	-4.595551085428260e-06,-4.996673304432510e-01
14		9.999999721724661e+07,0.000000000000000e+00
	0.000000000000000e+00,0.000000000000000e+00
	0.000000000000000e+00,0.000000000000000e+00
	0.000000000000000e+00,0.000000000000000e+00
	0.000000000000000e+00,0.000000000000000e+00
15		2.099999941562180e+08,0.000000000000000e+00
	0.000000000000000e+00,0.000000000000000e+00
	0.000000000000000e+00,0.000000000000000e+00
	0.000000000000000e+00,0.000000000000000e+00
	0.000000000000000e+00,0.000000000000000e+00
16		2.099999941562180e+08,0.000000000000000e+00
	2.461042188981180e-05,1.789487565435010e-05
	-3.370711705512150e-02,3.275315258975510e-02
	-3.483064021979460e-02,3.494501806010560e-02
	2.707146407879300e-04,1.968436321978520e-04
17		2.099999941562180e+08,0.000000000000000e+00
	0.000000000000000e+00,0.000000000000000e+00
	0.000000000000000e+00,0.000000000000000e+00
	0.000000000000000e+00,0.000000000000000e+00
	0.000000000000000e+00,0.000000000000000e+00
18		3.199999910951890e+08,0.000000000000000e+00
	0.000000000000000e+00,0.000000000000000e+00
	0.000000000000000e+00,0.000000000000000e+00
	0.000000000000000e+00,0.000000000000000e+00
	0.000000000000000e+00,0.000000000000000e+00
19		3.199999910951890e+08,0.000000000000000e+00
	2.691436278914120e-05,-9.188725936722080e-06
	4.394161094303880e-03,1.933294436385690e-02
	-6.247393102133790e-03,-2.355336269115160e-02
	2.960579906805540e-04,-1.010759853039430e-04
20		3.199999910951890e+08,0.000000000000000e+00
	0.000000000000000e+00,0.000000000000000e+00
	0.000000000000000e+00,0.000000000000000e+00
	0.000000000000000e+00,0.000000000000000e+00
	0.000000000000000e+00,0.000000000000000e+00
21		-2.299999935996670e+08,0.000000000000000e+00
	0.000000000000000e+00,0.000000000000000e+00
	0.000000000000000e+00,0.000000000000000e+00
	0.000000000000000e+00,0.000000000000000e+00
	0.000000000000000e+00,0.000000000000000e+00
22		-2.299999935996670e+08,0.000000000000000e+00
	-8.625893472650481e-06,-1.846317757426270e-05
	-6.420563707753650e-03,3.863958922236120e-03
	-1.124112229305620e-02,5.763313372278830e-03
	-9.488482819915530e-05,-2.030949533168900e-04
23		-2.299999935996670e+08,0.000000000000000e+00
	0.000000000000000e+00,0.000000000000000e+00
	0.000000000000000e+00,0.000000000000000e+00
	0.000000000000000e+00,0.000000000000000e+00
	0.000000000000000e+00,0.000000000000000e+00
24		-1.199999966606960e+08,0.000000000000000e+00
	0.000000000000000e+00,0.000000000000000e+00
	0.000000000000000e+00,0.000000000000000e+00
	0.000000000000000e+00,0.000000000000000e+00
	0.000000000000000e+00,0.000000000000000e+00
25		-1.199999966606960e+08,0.000000000000000e+00
	-2.357478289103530e-05,-6.531806126213330e-06
	-2.777089650790940e-03,1.666891804711790e-02
	4.163708627437290e-03,-2.041450672383640e-02
	-2.593226118013880e-04,-7.184986738834670e-05
26		-1.199999966606960e+08,0.000000000000000e+00
	0.000000000000000e+00,0.000000000000000e+00
	0.000000000000000e+00,0.000000000000000e+00
	0.000000000000000e+00,0.000000000000000e+00
	0.000000000000000e+00,0.000000000000000e+00
27		-9.999999721724650e+06,0.000000000000000e+00
	0.000000000000000e+00,0.000000000000000e+00
	0.000000000000000e+00,0.000000000000000e+00
	0.000000000000000e+00,0.000000000000000e+00
	0.000000000000000e+00,0.000000000000000e+00
28		-9.999999721724650e+06,0.000000000000000e+00
	-2.264207585841440e-05,1.654335787657140e-05
	3.062230504293370e-02,2.973904580026250e-02
	3.167997899888800e-02,3.178156214271470e-02
	-2.490628344425590e-04,1.819769366422850e-04
29		-9.999999721724650e+06,0.000000000000000e+00
	0.000000000000000e+00,0.000000000000000e+00
	0.000000000000000e+00,0.000000000000000e+00
	0.000000000000000e+00,0.000000000000000e+00
	0.000000000000000e+00,0.000000000000000e+00
30		1.999999944344930e+08,0.000000000000000e+00
	0.000000000000000e+00,0.000000000000000e+00
	0.000000000000000e+00,0.000000000000000e+00
	0.000000000000000e+00,0.000000000000000e+00
	0.000000000000000e+00,0.000000000000000e+00
31		1.999999944344930e+08,0.000000000000000e+00
	5.071557583441750e-06,1.799814596483990e-07
	-5.237605660159620e-02,-2.600513976590960e-03
	-5.234980979641470e-02,-2.610636077665130e-03
	5.578713341785920e-05,1.979796056132390e-06
32		1.999999944344930e+08,0.000000000000000e+00
	0.000000000000000e+00,0.000000000000000e+00
	0.000000000000000e+00,0.000000000000000e+00
	0.000000000000000e+00,0.000000000000000e+00
	0.000000000000000e+00,0.000000000000000e+00
33		3.099999913734640e+08,0.000000000000000e+00
	0.000000000000000e+00,0.000000000000000e+00
	0.000000000000000e+00,0.000000000000000e+00
	0.000000000000000e+00,0.000000000000000e+00
	0.000000000000000e+00,0.000000000000000e+00
34		3.099999913734640e+08,0.000000000000000e+00
	7.677344119780900e-06,-2.716060463361650e-06
	2.118150993036680e-03,1.249291960828280e-02
	-2.429778905490150e-03,-1.306880575869790e-02
	8.445078531758989e-05,-2.987666509697810e-05
35		3.099999913734640e+08,0.000000000000000e+00
	0.000000000000000e+00,0.000000000000000e+00
	0.000000000000000e+00,0.000000000000000e+00
	0.000000000000000e+00,0.000000000000000e+00
	0.000000000000000e+00,0.000000000000000e+00
36		-1.999999944344930e+07,0.000000000000000e+00
	0.000000000000000e+00,0.000000000000000e+00
	0.000000000000000e+00,0.000000000000000e+00
	0.000000000000000e+00,0.000000000000000e+00
	0.000000000000000e+00,0.000000000000000e+00
37		-1.999999944344930e+07,0.000000000000000e+00
	6.859904022776090e-06,7.093620096107250e-06
	4.356371393375580e-03,-5.202668255588850e-03
	5.609006065737630e-03,-6.225245007670230e-03
	7.545894425053699e-05,7.802982105717970e-05
38		-1.999999944344930e+07,0.000000000000000e+00
	0.000000000000000e+00,0.000000000000000e+00
	0.000000000000000e+00,0.000000000000000e+00
	0.000000000000000e+00,0.000000000000000e+00
	0.000000000000000e+00,0.000000000000000e+00
39		8.999999749552190e+07,0.000000000000000e+00
	0.000000000000000e+00,0.000000000000000e+00
	0.000000000000000e+00,0.000000000000000e+00
	0.000000000000000e+00,0.000000000000000e+00
	0.000000000000000e+00,0.000000000000000e+00
40		8.999999749552190e+07,0.000000000000000e+00
	6.339215809063430e-06,7.933550461378570e-07
	-4.202466272700540e-04,-9.645964391561139e-03
	2.761035190247020e-04,1.015336657118480e-02
	6.973137389969780e-05,8.726905507516429e-06
41		8.999999749552190e+07,0.000000000000000e+00
	0.000000000000000e+00,0.000000000000000e+00
	0.000000000000000e+00,0.000000000000000e+00
	0.000000000000000e+00,0.000000000000000e+00
	0.000000000000000e+00,0.000000000000000e+00
42		2.999999916517400e+08,0.000000000000000e+00
	0.000000000000000e+00,0.000000000000000e+00
	0.000000000000000e+00,0.000000000000000e+00
	0.000000000000000e+00,0.000000000000000e+00
	0.000000000000000e+00,0.000000000000000e+00
43		2.999999916517400e+08,0.000000000000000e+00
	-4.101179288437160e-08,2.941325013727070e-06
	1.399298464415060e-03,-2.768698981530720e-02
	-1.409083643029880e-03,2.770097133214590e-02
	-4.511297217280880e-07,3.235457515099780e-05
44		2.999999916517400e+08,0.000000000000000e+00
	0.000000000000000e+00,0.000000000000000e+00
	0.000000000000000e+00,0.000000000000000e+00
	0.000000000000000e+00,0.000000000000000e+00
	0.000000000000000e+00,0.000000000000000e+00
45		4.099999885907110e+08,0.000000000000000e+00
	0.000000000000000e+00,0.000000000000000e+00
	0.000000000000000e+00,0.000000000000000e+00
	0.000000000000000e+00,0.000000000000000e+00
	0.000000000000000e+00,0.000000000000000e+00
46		4.099999885907110e+08,0.000000000000000e+00
	3.570528368705850e-06,-9.207557083591810e-07
	4.575541000891430e-04,5.761791276100490e-03
	5.747539216674620e-04,6.031963284213930e-03
	3.927581205576430e-05,-1.012831279195100e-05
47		4.099999885907110e+08,0.000000000000000e+00
	0.000000000000000e+00,0.000000000000000e+00
	0.000000000000000e+00,0.000000000000000e+00
	0.000000000000000e+00,0.000000000000000e+00
	0.000000000000000e+00,0.000000000000000e+00
48		1.899999947127680e+08,0.000000000000000e+00
	0.000000000000000e+00,0.000000000000000e+00
	0.000000000000000e+00,0.000000000000000e+00
	0.000000000000000e+00,0.000000000000000e+00
	0.000000000000000e+00,0.000000000000000e+00
49		1.899999947127680e+08,0.000000000000000e+00
	-4.158832738822350e-06,-4.919439678285160e-07
	3.098336647950680e-04,6.276081285382030e-03
	2.172935571269350e-04,6.611584582902400e-03
	-4.574716012704580e-05,-5.411383646113670e-06
50		1.899999947127680e+08,0.000000000000000e+00
	0.000000000000000e+00,0.000000000000000e+00
	0.000000000000000e+00,0.000000000000000e+00
	0.000000000000000e+00,0.000000000000000e+00
	0.000000000000000e+00,0.000000000000000e+00
51		3.999999888689860e+08,0.000000000000000e+00
	0.000000000000000e+00,0.000000000000000e+00
	0.000000000000000e+00,0.000000000000000e+00
	0.000000000000000e+00,0.000000000000000e+00
	0.000000000000000e+00,0.000000000000000e+00
52		3.999999888689860e+08,0.000000000000000e+00
	-5.847103401426550e-07,7.669073371299900e-08
	6.428063164360990e-03,-3.135300589548980e-04
	6.425229721138260e-03,-3.105875393173390e-04
	-6.431813741569210e-06,8.435980708429891e-07
53		3.999999888689860e+08,0.000000000000000e+00
	0.000000000000000e+00,0.000000000000000e+00
	0.000000000000000e+00,0.000000000000000e+00
	0.000000000000000e+00,0.000000000000000e+00
	0.000000000000000e+00,0.000000000000000e+00
54		5.099999858079570e+08,0.000000000000000e+00
	0.000000000000000e+00,0.000000000000000e+00
	0.000000000000000e+00,0.000000000000000e+00
	0.000000000000000e+00,0.000000000000000e+00
	0.000000000000000e+00,0.000000000000000e+00
55		5.099999858079570e+08,0.000000000000000e+00
	3.746823615081620e-07,3.814529835704280e-07
	-6.958264894712059e-04,4.783392034123470e-04
	7.210371590152990e-04,-5.124503635141550e-04
	4.121505976589780e-06,4.195982819274710e-06
56		5.099999858079570e+08,0.000000000000000e+00
	0.000000000000000e+00,0.000000000000000e+00
	0.000000000000000e+00,0.000000000000000e+00
	0.000000000000000e+00,0.000000000000000e+00
	0.000000000000000e+00,0.000000000000000e+00
57		2.899999919300150e+08,0.000000000000000e+00
	0.000000000000000e+00,0.000000000000000e+00
	0.000000000000000e+00,0.000000000000000e+00
	0.000000000000000e+00,0.000000000000000e+00
	0.000000000000000e+00,0.000000000000000e+00
58		2.899999919300150e+08,0.000000000000000e+00
	2.862760348371600e-07,-5.961451177227350e-07
	-9.464293176149220e-04,-2.737719865860970e-04
	9.921407444263590e-04,3.049241455312160e-04
	3.149036383208760e-06,-6.557596294950090e-06
59		2.899999919300150e+08,0.000000000000000e+00
	0.000000000000000e+00,0.000000000000000e+00
	0.000000000000000e+00,0.000000000000000e+00
	0.000000000000000e+00,0.000000000000000e+00
	0.000000000000000e+00,0.000000000000000e+00
