Title: spice test                                                   
Date:  Wed Sep  6 18:56:34 2000 
Plotname:  Harmonic Balance Simulation 
Flags: complex 
No. Variables: 5 
No. Points: 60 
Command:  version 3f5 
Variables:
	0	frequency	frequency
	1	V(1)	voltage
	2	V(2)	voltage
	3	out	voltage
	4	#internal_variable_4	voltage
Values:
0		0.000000000000000e+00,0.000000000000000e+00
	0.000000000000000e+00,0.000000000000000e+00
	0.000000000000000e+00,0.000000000000000e+00
	0.000000000000000e+00,0.000000000000000e+00
	0.000000000000000e+00,0.000000000000000e+00
1		0.000000000000000e+00,0.000000000000000e+00
	-1.587375379428260e-05,0.000000000000000e+00
	1.588962754807920e-01,0.000000000000000e+00
	1.587375379428490e-01,0.000000000000000e+00
	-1.746112917371090e-04,0.000000000000000e+00
2		0.000000000000000e+00,0.000000000000000e+00
	0.000000000000000e+00,0.000000000000000e+00
	0.000000000000000e+00,0.000000000000000e+00
	0.000000000000000e+00,0.000000000000000e+00
	0.000000000000000e+00,0.000000000000000e+00
3		1.099999969389710e+08,0.000000000000000e+00
	0.000000000000000e+00,0.000000000000000e+00
	0.000000000000000e+00,0.000000000000000e+00
	0.000000000000000e+00,0.000000000000000e+00
	0.000000000000000e+00,0.000000000000000e+00
4		1.099999969389710e+08,0.000000000000000e+00
	-1.836543228177600e-06,-4.999838496613920e-01
	-5.941428272627410e-07,-1.617505126331780e-01
	-5.935492779847560e-07,-1.615889237094690e-01
	-1.835949678899620e-06,-4.998222607376820e-01
5		1.099999969389710e+08,0.000000000000000e+00
	0.000000000000000e+00,0.000000000000000e+00
	0.000000000000000e+00,0.000000000000000e+00
	0.000000000000000e+00,0.000000000000000e+00
	0.000000000000000e+00,0.000000000000000e+00
6		2.199999938779420e+08,0.000000000000000e+00
	0.000000000000000e+00,0.000000000000000e+00
	0.000000000000000e+00,0.000000000000000e+00
	0.000000000000000e+00,0.000000000000000e+00
	0.000000000000000e+00,0.000000000000000e+00
7		2.199999938779420e+08,0.000000000000000e+00
	4.844108706997130e-06,-3.558680852682120e-11
	-4.848952815704830e-02,3.562239533535320e-07
	-4.844108706997830e-02,3.558680852682630e-07
	5.328519577696850e-05,-3.914548937950330e-10
8		2.199999938779420e+08,0.000000000000000e+00
	0.000000000000000e+00,0.000000000000000e+00
	0.000000000000000e+00,0.000000000000000e+00
	0.000000000000000e+00,0.000000000000000e+00
	0.000000000000000e+00,0.000000000000000e+00
9		3.299999908169140e+08,0.000000000000000e+00
	0.000000000000000e+00,0.000000000000000e+00
	0.000000000000000e+00,0.000000000000000e+00
	0.000000000000000e+00,0.000000000000000e+00
	0.000000000000000e+00,0.000000000000000e+00
10		3.299999908169140e+08,0.000000000000000e+00
	2.740034322961320e-12,2.486507527420940e-07
	-2.742774357284680e-08,-2.488994034948720e-03
	-2.740034322961710e-08,-2.486507527421300e-03
	3.014037755257450e-11,2.735158280163040e-06
11		3.299999908169140e+08,0.000000000000000e+00
	0.000000000000000e+00,0.000000000000000e+00
	0.000000000000000e+00,0.000000000000000e+00
	0.000000000000000e+00,0.000000000000000e+00
	0.000000000000000e+00,0.000000000000000e+00
12		9.999999721724661e+07,0.000000000000000e+00
	0.000000000000000e+00,0.000000000000000e+00
	0.000000000000000e+00,0.000000000000000e+00
	0.000000000000000e+00,0.000000000000000e+00
	0.000000000000000e+00,0.000000000000000e+00
13		9.999999721724661e+07,0.000000000000000e+00
	-1.836543910037070e-06,-4.999840352921120e-01
	-5.873174139846940e-07,-1.598923491215000e-01
	-5.867306833013920e-07,-1.597326165049950e-01
	-1.835957179353770e-06,-4.998243026756070e-01
14		9.999999721724661e+07,0.000000000000000e+00
	0.000000000000000e+00,0.000000000000000e+00
	0.000000000000000e+00,0.000000000000000e+00
	0.000000000000000e+00,0.000000000000000e+00
	0.000000000000000e+00,0.000000000000000e+00
15		2.099999941562180e+08,0.000000000000000e+00
	0.000000000000000e+00,0.000000000000000e+00
	0.000000000000000e+00,0.000000000000000e+00
	0.000000000000000e+00,0.000000000000000e+00
	0.000000000000000e+00,0.000000000000000e+00
16		2.099999941562180e+08,0.000000000000000e+00
	1.049393889550380e-05,-7.709278237303540e-11
	-1.050443283440090e-01,7.716987515541970e-07
	-1.049393889550540e-01,7.709278237304660e-07
	1.154333278505420e-04,-8.480206061033900e-10
17		2.099999941562180e+08,0.000000000000000e+00
	0.000000000000000e+00,0.000000000000000e+00
	0.000000000000000e+00,0.000000000000000e+00
	0.000000000000000e+00,0.000000000000000e+00
	0.000000000000000e+00,0.000000000000000e+00
18		3.199999910951890e+08,0.000000000000000e+00
	0.000000000000000e+00,0.000000000000000e+00
	0.000000000000000e+00,0.000000000000000e+00
	0.000000000000000e+00,0.000000000000000e+00
	0.000000000000000e+00,0.000000000000000e+00
19		3.199999910951890e+08,0.000000000000000e+00
	-6.139804777185470e-12,-5.571706816881460e-07
	6.145944581963540e-08,5.577278523699150e-03
	6.139804777186359e-08,5.571706816882270e-03
	-6.753785254904020e-11,-6.128877498569600e-06
20		3.199999910951890e+08,0.000000000000000e+00
	0.000000000000000e+00,0.000000000000000e+00
	0.000000000000000e+00,0.000000000000000e+00
	0.000000000000000e+00,0.000000000000000e+00
	0.000000000000000e+00,0.000000000000000e+00
21		-2.299999935996670e+08,0.000000000000000e+00
	0.000000000000000e+00,0.000000000000000e+00
	0.000000000000000e+00,0.000000000000000e+00
	0.000000000000000e+00,0.000000000000000e+00
	0.000000000000000e+00,0.000000000000000e+00
22		-2.299999935996670e+08,0.000000000000000e+00
	-1.353790627830520e-06,-9.945500699656671e-12
	1.355144418458550e-02,9.955446200357770e-08
	1.353790627830720e-02,9.945500699658110e-08
	-1.489169690613570e-05,-1.094005076962230e-10
23		-2.299999935996670e+08,0.000000000000000e+00
	0.000000000000000e+00,0.000000000000000e+00
	0.000000000000000e+00,0.000000000000000e+00
	0.000000000000000e+00,0.000000000000000e+00
	0.000000000000000e+00,0.000000000000000e+00
24		-1.199999966606960e+08,0.000000000000000e+00
	0.000000000000000e+00,0.000000000000000e+00
	0.000000000000000e+00,0.000000000000000e+00
	0.000000000000000e+00,0.000000000000000e+00
	0.000000000000000e+00,0.000000000000000e+00
25		-1.199999966606960e+08,0.000000000000000e+00
	5.878445852766330e-12,-1.600359355186330e-06
	-5.884324298619950e-08,1.601959714541750e-02
	-5.878445852767180e-08,1.600359355186570e-02
	6.466290438042960e-11,-1.760395290704970e-05
26		-1.199999966606960e+08,0.000000000000000e+00
	0.000000000000000e+00,0.000000000000000e+00
	0.000000000000000e+00,0.000000000000000e+00
	0.000000000000000e+00,0.000000000000000e+00
	0.000000000000000e+00,0.000000000000000e+00
27		-9.999999721724650e+06,0.000000000000000e+00
	0.000000000000000e+00,0.000000000000000e+00
	0.000000000000000e+00,0.000000000000000e+00
	0.000000000000000e+00,0.000000000000000e+00
	0.000000000000000e+00,0.000000000000000e+00
28		-9.999999721724650e+06,0.000000000000000e+00
	-1.060501487118350e-05,-6.754827190549320e-19
	1.061561988605620e-01,6.761582017741050e-15
	1.060501487118500e-01,6.754827190550500e-15
	-1.166551635830180e-04,-7.430309909604240e-18
29		-9.999999721724650e+06,0.000000000000000e+00
	0.000000000000000e+00,0.000000000000000e+00
	0.000000000000000e+00,0.000000000000000e+00
	0.000000000000000e+00,0.000000000000000e+00
	0.000000000000000e+00,0.000000000000000e+00
30		1.999999944344930e+08,0.000000000000000e+00
	0.000000000000000e+00,0.000000000000000e+00
	0.000000000000000e+00,0.000000000000000e+00
	0.000000000000000e+00,0.000000000000000e+00
	0.000000000000000e+00,0.000000000000000e+00
31		1.999999944344930e+08,0.000000000000000e+00
	4.876577565296420e-06,-3.582533905300420e-11
	-4.881454142862430e-02,3.586116439206240e-07
	-4.876577565297130e-02,3.582533905300940e-07
	5.364235321826060e-05,-3.940787295830470e-10
32		1.999999944344930e+08,0.000000000000000e+00
	0.000000000000000e+00,0.000000000000000e+00
	0.000000000000000e+00,0.000000000000000e+00
	0.000000000000000e+00,0.000000000000000e+00
	0.000000000000000e+00,0.000000000000000e+00
33		3.099999913734640e+08,0.000000000000000e+00
	0.000000000000000e+00,0.000000000000000e+00
	0.000000000000000e+00,0.000000000000000e+00
	0.000000000000000e+00,0.000000000000000e+00
	0.000000000000000e+00,0.000000000000000e+00
34		3.099999913734640e+08,0.000000000000000e+00
	-1.573330115892570e-11,-1.427754218866030e-06
	1.574903446008690e-07,1.429181973085100e-02
	1.573330115892790e-07,1.427754218866240e-02
	-1.730663127481820e-10,-1.570529640752630e-05
35		3.099999913734640e+08,0.000000000000000e+00
	0.000000000000000e+00,0.000000000000000e+00
	0.000000000000000e+00,0.000000000000000e+00
	0.000000000000000e+00,0.000000000000000e+00
	0.000000000000000e+00,0.000000000000000e+00
36		8.999999749552190e+07,0.000000000000000e+00
	0.000000000000000e+00,0.000000000000000e+00
	0.000000000000000e+00,0.000000000000000e+00
	0.000000000000000e+00,0.000000000000000e+00
	0.000000000000000e+00,0.000000000000000e+00
37		8.999999749552190e+07,0.000000000000000e+00
	4.880401270902070e-12,1.328649878550300e-06
	-4.885281672173680e-08,-1.329978528429040e-02
	-4.880401270902780e-08,-1.328649878550490e-02
	5.368441397992280e-11,1.461514866405330e-05
38		8.999999749552190e+07,0.000000000000000e+00
	0.000000000000000e+00,0.000000000000000e+00
	0.000000000000000e+00,0.000000000000000e+00
	0.000000000000000e+00,0.000000000000000e+00
	0.000000000000000e+00,0.000000000000000e+00
39		2.999999916517400e+08,0.000000000000000e+00
	0.000000000000000e+00,0.000000000000000e+00
	0.000000000000000e+00,0.000000000000000e+00
	0.000000000000000e+00,0.000000000000000e+00
	0.000000000000000e+00,0.000000000000000e+00
40		2.999999916517400e+08,0.000000000000000e+00
	-2.440785564371830e-12,-2.214945999653090e-07
	2.443226349936550e-08,2.217160945653070e-03
	2.440785564372180e-08,2.214945999653410e-03
	-2.684864120809010e-11,-2.436440599618400e-06
41		2.999999916517400e+08,0.000000000000000e+00
	0.000000000000000e+00,0.000000000000000e+00
	0.000000000000000e+00,0.000000000000000e+00
	0.000000000000000e+00,0.000000000000000e+00
	0.000000000000000e+00,0.000000000000000e+00
42		4.099999885907110e+08,0.000000000000000e+00
	0.000000000000000e+00,0.000000000000000e+00
	0.000000000000000e+00,0.000000000000000e+00
	0.000000000000000e+00,0.000000000000000e+00
	0.000000000000000e+00,0.000000000000000e+00
43		4.099999885907110e+08,0.000000000000000e+00
	1.344364648287460e-06,-1.975250892844450e-11
	-1.345709012935940e-02,1.977226143737580e-07
	-1.344364648287650e-02,1.975250892844740e-07
	1.478801113116200e-05,-2.172775982128900e-10
44		4.099999885907110e+08,0.000000000000000e+00
	0.000000000000000e+00,0.000000000000000e+00
	0.000000000000000e+00,0.000000000000000e+00
	0.000000000000000e+00,0.000000000000000e+00
	0.000000000000000e+00,0.000000000000000e+00
45		1.899999947127680e+08,0.000000000000000e+00
	0.000000000000000e+00,0.000000000000000e+00
	0.000000000000000e+00,0.000000000000000e+00
	0.000000000000000e+00,0.000000000000000e+00
	0.000000000000000e+00,0.000000000000000e+00
46		1.899999947127680e+08,0.000000000000000e+00
	-1.615358272536010e-06,1.186708451665480e-11
	1.616973630808780e-02,-1.187895160117320e-07
	1.615358272536240e-02,-1.186708451665660e-07
	-1.776894099789610e-05,1.305379296832030e-10
47		1.899999947127680e+08,0.000000000000000e+00
	0.000000000000000e+00,0.000000000000000e+00
	0.000000000000000e+00,0.000000000000000e+00
	0.000000000000000e+00,0.000000000000000e+00
	0.000000000000000e+00,0.000000000000000e+00
48		3.999999888689860e+08,0.000000000000000e+00
	0.000000000000000e+00,0.000000000000000e+00
	0.000000000000000e+00,0.000000000000000e+00
	0.000000000000000e+00,0.000000000000000e+00
	0.000000000000000e+00,0.000000000000000e+00
49		3.999999888689860e+08,0.000000000000000e+00
	-5.380513044788610e-07,7.905493032385770e-12
	5.385893557834180e-03,-7.913398525419300e-08
	5.380513044789390e-03,-7.905493032386920e-08
	-5.918564349267470e-06,8.696042335624350e-11
50		3.999999888689860e+08,0.000000000000000e+00
	0.000000000000000e+00,0.000000000000000e+00
	0.000000000000000e+00,0.000000000000000e+00
	0.000000000000000e+00,0.000000000000000e+00
	0.000000000000000e+00,0.000000000000000e+00
51		5.099999858079570e+08,0.000000000000000e+00
	0.000000000000000e+00,0.000000000000000e+00
	0.000000000000000e+00,0.000000000000000e+00
	0.000000000000000e+00,0.000000000000000e+00
	0.000000000000000e+00,0.000000000000000e+00
52		5.099999858079570e+08,0.000000000000000e+00
	2.079888759661210e-13,1.132463950305850e-08
	-2.081968648421170e-09,-1.133596414256320e-04
	-2.079888759661510e-09,-1.132463950306010e-04
	2.287877635627330e-12,1.245710345336430e-07
53		5.099999858079570e+08,0.000000000000000e+00
	0.000000000000000e+00,0.000000000000000e+00
	0.000000000000000e+00,0.000000000000000e+00
	0.000000000000000e+00,0.000000000000000e+00
	0.000000000000000e+00,0.000000000000000e+00
54		2.899999919300150e+08,0.000000000000000e+00
	0.000000000000000e+00,0.000000000000000e+00
	0.000000000000000e+00,0.000000000000000e+00
	0.000000000000000e+00,0.000000000000000e+00
	0.000000000000000e+00,0.000000000000000e+00
55		2.899999919300150e+08,0.000000000000000e+00
	5.992260879247250e-13,5.437820453593760e-08
	-5.998253140127370e-09,-5.443258274048140e-04
	-5.992260879248120e-09,-5.437820453594550e-04
	6.591486967171970e-12,5.981602498953140e-07
56		2.899999919300150e+08,0.000000000000000e+00
	0.000000000000000e+00,0.000000000000000e+00
	0.000000000000000e+00,0.000000000000000e+00
	0.000000000000000e+00,0.000000000000000e+00
	0.000000000000000e+00,0.000000000000000e+00
57		4.999999860862330e+08,0.000000000000000e+00
	0.000000000000000e+00,0.000000000000000e+00
	0.000000000000000e+00,0.000000000000000e+00
	0.000000000000000e+00,0.000000000000000e+00
	0.000000000000000e+00,0.000000000000000e+00
58		4.999999860862330e+08,0.000000000000000e+00
	1.402963606790270e-12,7.638924804353950e-08
	-1.404366570397260e-08,-7.646563729159410e-04
	-1.402963606790470e-08,-7.638924804355060e-04
	1.543259967469300e-11,8.402817284789339e-07
59		4.999999860862330e+08,0.000000000000000e+00
	0.000000000000000e+00,0.000000000000000e+00
	0.000000000000000e+00,0.000000000000000e+00
	0.000000000000000e+00,0.000000000000000e+00
	0.000000000000000e+00,0.000000000000000e+00
