Title: spice test                                                   
Date:  Wed Sep  6 18:56:34 2000 
Plotname:  Harmonic Balance Simulation 
Flags: complex 
No. Variables: 5 
No. Points: 57 
Command:  version 3f5 
Variables:
	0	frequency	frequency
	1	V(1)	voltage
	2	V(2)	voltage
	3	out	voltage
	4	#internal_variable_4	voltage
Values:
0		0.000000000000000e+00,0.000000000000000e+00
	0.000000000000000e+00,0.000000000000000e+00
	0.000000000000000e+00,0.000000000000000e+00
	0.000000000000000e+00,0.000000000000000e+00
	0.000000000000000e+00,0.000000000000000e+00
1		0.000000000000000e+00,0.000000000000000e+00
	-6.575000220021110e-04,0.000000000000000e+00
	6.578287720131190e+00,0.000000000000000e+00
	6.575000220021180e+00,0.000000000000000e+00
	-7.232500242023220e-03,0.000000000000000e+00
2		0.000000000000000e+00,0.000000000000000e+00
	0.000000000000000e+00,0.000000000000000e+00
	0.000000000000000e+00,0.000000000000000e+00
	0.000000000000000e+00,0.000000000000000e+00
	0.000000000000000e+00,0.000000000000000e+00
3		1.099999969389710e+08,0.000000000000000e+00
	0.000000000000000e+00,0.000000000000000e+00
	0.000000000000000e+00,0.000000000000000e+00
	0.000000000000000e+00,0.000000000000000e+00
	0.000000000000000e+00,0.000000000000000e+00
4		1.099999969389710e+08,0.000000000000000e+00
	-6.380903445170630e-05,-1.999828266170460e-01
	-9.592507892385520e-03,-9.977637353868089e-02
	1.176447732827880e-02,1.046402096972770e-01
	-6.945529686363470e-04,-1.998110585724560e-01
5		1.099999969389710e+08,0.000000000000000e+00
	0.000000000000000e+00,0.000000000000000e+00
	0.000000000000000e+00,0.000000000000000e+00
	0.000000000000000e+00,0.000000000000000e+00
	0.000000000000000e+00,0.000000000000000e+00
6		9.999999721724661e+07,0.000000000000000e+00
	0.000000000000000e+00,0.000000000000000e+00
	0.000000000000000e+00,0.000000000000000e+00
	0.000000000000000e+00,0.000000000000000e+00
	0.000000000000000e+00,0.000000000000000e+00
7		9.999999721724661e+07,0.000000000000000e+00
	-5.085290810204790e-05,-1.499926813717670e+01
	-2.865863272037620e-02,-7.251890341030330e+00
	2.788245058544950e-02,7.255538358529000e+00
	-8.401214190905910e-06,-1.499194694281490e+01
8		9.999999721724661e+07,0.000000000000000e+00
	0.000000000000000e+00,0.000000000000000e+00
	0.000000000000000e+00,0.000000000000000e+00
	0.000000000000000e+00,0.000000000000000e+00
	0.000000000000000e+00,0.000000000000000e+00
9		2.099999941562180e+08,0.000000000000000e+00
	0.000000000000000e+00,0.000000000000000e+00
	0.000000000000000e+00,0.000000000000000e+00
	0.000000000000000e+00,0.000000000000000e+00
	0.000000000000000e+00,0.000000000000000e+00
10		2.099999941562180e+08,0.000000000000000e+00
	7.802210216438291e-06,4.058041014550980e-05
	-6.381621921867930e-02,1.206060368193550e-03
	-6.696408440674030e-02,2.337248633761080e-03
	8.582431238082110e-05,4.463845116006080e-04
11		2.099999941562180e+08,0.000000000000000e+00
	0.000000000000000e+00,0.000000000000000e+00
	0.000000000000000e+00,0.000000000000000e+00
	0.000000000000000e+00,0.000000000000000e+00
	0.000000000000000e+00,0.000000000000000e+00
12		-9.999999721724650e+06,0.000000000000000e+00
	0.000000000000000e+00,0.000000000000000e+00
	0.000000000000000e+00,0.000000000000000e+00
	0.000000000000000e+00,0.000000000000000e+00
	0.000000000000000e+00,0.000000000000000e+00
13		-9.999999721724650e+06,0.000000000000000e+00
	-7.658769727597670e-06,4.077658272201930e-05
	6.314844518182380e-02,1.050207459830710e-03
	6.635809413268270e-02,2.181429004453450e-03
	-8.424646700357439e-05,4.485424099422120e-04
14		-9.999999721724650e+06,0.000000000000000e+00
	0.000000000000000e+00,0.000000000000000e+00
	0.000000000000000e+00,0.000000000000000e+00
	0.000000000000000e+00,0.000000000000000e+00
	0.000000000000000e+00,0.000000000000000e+00
15		1.999999944344930e+08,0.000000000000000e+00
	0.000000000000000e+00,0.000000000000000e+00
	0.000000000000000e+00,0.000000000000000e+00
	0.000000000000000e+00,0.000000000000000e+00
	0.000000000000000e+00,0.000000000000000e+00
16		1.999999944344930e+08,0.000000000000000e+00
	3.121519913245630e-04,-2.942479696196260e-06
	-3.225769764303310e+00,-1.519481563727540e-02
	-3.224184804730500e+00,-1.588930208990370e-02
	3.433671904570200e-03,-3.236727665815890e-05
17		1.999999944344930e+08,0.000000000000000e+00
	0.000000000000000e+00,0.000000000000000e+00
	0.000000000000000e+00,0.000000000000000e+00
	0.000000000000000e+00,0.000000000000000e+00
	0.000000000000000e+00,0.000000000000000e+00
18		3.099999913734640e+08,0.000000000000000e+00
	0.000000000000000e+00,0.000000000000000e+00
	0.000000000000000e+00,0.000000000000000e+00
	0.000000000000000e+00,0.000000000000000e+00
	0.000000000000000e+00,0.000000000000000e+00
19		3.099999913734640e+08,0.000000000000000e+00
	4.406793631497470e-07,5.494237957829550e-06
	-8.540002319773220e-03,-7.883149589379070e-04
	8.970904654101830e-03,6.846876835312030e-04
	4.847472994647220e-06,6.043661753612510e-05
20		3.099999913734640e+08,0.000000000000000e+00
	0.000000000000000e+00,0.000000000000000e+00
	0.000000000000000e+00,0.000000000000000e+00
	0.000000000000000e+00,0.000000000000000e+00
	0.000000000000000e+00,0.000000000000000e+00
21		8.999999749552190e+07,0.000000000000000e+00
	0.000000000000000e+00,0.000000000000000e+00
	0.000000000000000e+00,0.000000000000000e+00
	0.000000000000000e+00,0.000000000000000e+00
	0.000000000000000e+00,0.000000000000000e+00
22		8.999999749552190e+07,0.000000000000000e+00
	5.184656721367540e-07,-5.643979631545010e-06
	-8.540579622104040e-03,6.540988756164030e-04
	8.994687033843049e-03,-5.410970479375540e-04
	5.703122393504300e-06,-6.208377594699510e-05
23		8.999999749552190e+07,0.000000000000000e+00
	0.000000000000000e+00,0.000000000000000e+00
	0.000000000000000e+00,0.000000000000000e+00
	0.000000000000000e+00,0.000000000000000e+00
	0.000000000000000e+00,0.000000000000000e+00
24		2.999999916517400e+08,0.000000000000000e+00
	0.000000000000000e+00,0.000000000000000e+00
	0.000000000000000e+00,0.000000000000000e+00
	0.000000000000000e+00,0.000000000000000e+00
	0.000000000000000e+00,0.000000000000000e+00
25		2.999999916517400e+08,0.000000000000000e+00
	1.804615255222860e-06,4.757372389260350e-07
	-1.683183854489750e-02,-5.101994338639510e-03
	1.683894791944960e-02,5.110160196717590e-03
	1.985076780745140e-05,5.233109628186390e-06
26		2.999999916517400e+08,0.000000000000000e+00
	0.000000000000000e+00,0.000000000000000e+00
	0.000000000000000e+00,0.000000000000000e+00
	0.000000000000000e+00,0.000000000000000e+00
	0.000000000000000e+00,0.000000000000000e+00
27		4.099999885907110e+08,0.000000000000000e+00
	0.000000000000000e+00,0.000000000000000e+00
	0.000000000000000e+00,0.000000000000000e+00
	0.000000000000000e+00,0.000000000000000e+00
	0.000000000000000e+00,0.000000000000000e+00
28		4.099999885907110e+08,0.000000000000000e+00
	2.308935734284960e-06,1.328805907194080e-05
	-2.114122370092420e-02,-2.304721160391460e-05
	-2.216064538924950e-02,3.249487960541720e-04
	2.539829307713460e-05,1.461686497913490e-04
29		4.099999885907110e+08,0.000000000000000e+00
	0.000000000000000e+00,0.000000000000000e+00
	0.000000000000000e+00,0.000000000000000e+00
	0.000000000000000e+00,0.000000000000000e+00
	0.000000000000000e+00,0.000000000000000e+00
30		1.899999947127680e+08,0.000000000000000e+00
	0.000000000000000e+00,0.000000000000000e+00
	0.000000000000000e+00,0.000000000000000e+00
	0.000000000000000e+00,0.000000000000000e+00
	0.000000000000000e+00,0.000000000000000e+00
31		1.899999947127680e+08,0.000000000000000e+00
	-2.254671598090550e-06,1.354862729491990e-05
	2.060888103782650e-02,-4.465996787739210e-05
	2.169371019859890e-02,3.103834098141750e-04
	-2.480138757899610e-05,1.490349002441190e-04
32		1.899999947127680e+08,0.000000000000000e+00
	0.000000000000000e+00,0.000000000000000e+00
	0.000000000000000e+00,0.000000000000000e+00
	0.000000000000000e+00,0.000000000000000e+00
	0.000000000000000e+00,0.000000000000000e+00
33		3.999999888689860e+08,0.000000000000000e+00
	0.000000000000000e+00,0.000000000000000e+00
	0.000000000000000e+00,0.000000000000000e+00
	0.000000000000000e+00,0.000000000000000e+00
	0.000000000000000e+00,0.000000000000000e+00
34		3.999999888689860e+08,0.000000000000000e+00
	5.936058017895430e-05,-2.896681805155640e-06
	-6.482324472356870e-01,-2.134739429840120e-02
	-6.479236593268810e-01,-2.161965916885980e-02
	6.529663819684970e-04,-3.186349985671210e-05
35		3.999999888689860e+08,0.000000000000000e+00
	0.000000000000000e+00,0.000000000000000e+00
	0.000000000000000e+00,0.000000000000000e+00
	0.000000000000000e+00,0.000000000000000e+00
	0.000000000000000e+00,0.000000000000000e+00
36		5.099999858079570e+08,0.000000000000000e+00
	0.000000000000000e+00,0.000000000000000e+00
	0.000000000000000e+00,0.000000000000000e+00
	0.000000000000000e+00,0.000000000000000e+00
	0.000000000000000e+00,0.000000000000000e+00
37		5.099999858079570e+08,0.000000000000000e+00
	-1.173250423012220e-06,7.643217977685480e-06
	-1.156638962715220e-02,-3.916734612487910e-03
	1.217981030625710e-02,3.913319526398840e-03
	-1.290575465313440e-05,8.407539775454029e-05
38		5.099999858079570e+08,0.000000000000000e+00
	0.000000000000000e+00,0.000000000000000e+00
	0.000000000000000e+00,0.000000000000000e+00
	0.000000000000000e+00,0.000000000000000e+00
	0.000000000000000e+00,0.000000000000000e+00
39		2.899999919300150e+08,0.000000000000000e+00
	0.000000000000000e+00,0.000000000000000e+00
	0.000000000000000e+00,0.000000000000000e+00
	0.000000000000000e+00,0.000000000000000e+00
	0.000000000000000e+00,0.000000000000000e+00
40		2.899999919300150e+08,0.000000000000000e+00
	-8.956102366673210e-07,-7.848318743571290e-06
	-1.131083613159450e-02,3.249214381214180e-03
	1.197113368221320e-02,-3.224849363148820e-03
	-9.851712603340540e-06,-8.633150617928419e-05
41		2.899999919300150e+08,0.000000000000000e+00
	0.000000000000000e+00,0.000000000000000e+00
	0.000000000000000e+00,0.000000000000000e+00
	0.000000000000000e+00,0.000000000000000e+00
	0.000000000000000e+00,0.000000000000000e+00
42		4.999999860862330e+08,0.000000000000000e+00
	0.000000000000000e+00,0.000000000000000e+00
	0.000000000000000e+00,0.000000000000000e+00
	0.000000000000000e+00,0.000000000000000e+00
	0.000000000000000e+00,0.000000000000000e+00
43		4.999999860862330e+08,0.000000000000000e+00
	1.725871498767390e-06,7.609507813552520e-06
	-6.938167548838440e-04,-7.623681077851450e-02
	6.523394060512130e-04,7.624168749391530e-02
	1.898458648644130e-05,8.370458594907780e-05
44		4.999999860862330e+08,0.000000000000000e+00
	0.000000000000000e+00,0.000000000000000e+00
	0.000000000000000e+00,0.000000000000000e+00
	0.000000000000000e+00,0.000000000000000e+00
	0.000000000000000e+00,0.000000000000000e+00
45		6.099999830252039e+08,0.000000000000000e+00
	0.000000000000000e+00,0.000000000000000e+00
	0.000000000000000e+00,0.000000000000000e+00
	0.000000000000000e+00,0.000000000000000e+00
	0.000000000000000e+00,0.000000000000000e+00
46		6.099999830252039e+08,0.000000000000000e+00
	-4.702874852659050e-06,4.444748389444260e-06
	-5.658657795058480e-03,-8.601079195088261e-03
	-6.063069792177330e-03,-8.911560988505960e-03
	-5.173162337924960e-05,4.889223228388690e-05
47		6.099999830252039e+08,0.000000000000000e+00
	0.000000000000000e+00,0.000000000000000e+00
	0.000000000000000e+00,0.000000000000000e+00
	0.000000000000000e+00,0.000000000000000e+00
	0.000000000000000e+00,0.000000000000000e+00
48		3.899999891472620e+08,0.000000000000000e+00
	0.000000000000000e+00,0.000000000000000e+00
	0.000000000000000e+00,0.000000000000000e+00
	0.000000000000000e+00,0.000000000000000e+00
	0.000000000000000e+00,0.000000000000000e+00
49		3.899999891472620e+08,0.000000000000000e+00
	4.879754181002120e-06,4.912437551114530e-06
	5.981037595756160e-03,-8.314916401877880e-03
	6.451228907928810e-03,-8.659491272639140e-03
	5.367729599102330e-05,5.403681306225980e-05
50		3.899999891472620e+08,0.000000000000000e+00
	0.000000000000000e+00,0.000000000000000e+00
	0.000000000000000e+00,0.000000000000000e+00
	0.000000000000000e+00,0.000000000000000e+00
	0.000000000000000e+00,0.000000000000000e+00
51		5.999999833034790e+08,0.000000000000000e+00
	0.000000000000000e+00,0.000000000000000e+00
	0.000000000000000e+00,0.000000000000000e+00
	0.000000000000000e+00,0.000000000000000e+00
	0.000000000000000e+00,0.000000000000000e+00
52		5.999999833034790e+08,0.000000000000000e+00
	2.394556503351180e-05,-4.680296671203940e-06
	-2.356019447041040e-01,-1.462581423796120e-02
	-2.356124072395600e-01,-1.478103336048720e-02
	2.634012153686300e-04,-5.148326338324330e-05
53		5.999999833034790e+08,0.000000000000000e+00
	0.000000000000000e+00,0.000000000000000e+00
	0.000000000000000e+00,0.000000000000000e+00
	0.000000000000000e+00,0.000000000000000e+00
	0.000000000000000e+00,0.000000000000000e+00
54		6.999999805207260e+08,0.000000000000000e+00
	0.000000000000000e+00,0.000000000000000e+00
	0.000000000000000e+00,0.000000000000000e+00
	0.000000000000000e+00,0.000000000000000e+00
	0.000000000000000e+00,0.000000000000000e+00
55		6.999999805207260e+08,0.000000000000000e+00
	2.739445895858060e-06,1.207239184212260e-05
	8.530616316722280e-03,-1.181014711252170e-01
	-8.621656248326250e-03,1.181086270790720e-01
	3.013390485443860e-05,1.327963102633490e-04
56		6.999999805207260e+08,0.000000000000000e+00
	0.000000000000000e+00,0.000000000000000e+00
	0.000000000000000e+00,0.000000000000000e+00
	0.000000000000000e+00,0.000000000000000e+00
	0.000000000000000e+00,0.000000000000000e+00
