Title: spice test 4-diode bridge circuit                            
Date:  Wed Sep  6 18:56:40 2000 
Plotname:  Harmonic Balance Simulation 
Flags: complex 
No. Variables: 9 
No. Points: 57 
Command:  version 3f5 
Variables:
	0	frequency	frequency
	1	V(1)	voltage
	2	V(2)	voltage
	3	V(3)	voltage
	4	V(4)	voltage
	5	#internal_variable_5	voltage
	6	#internal_variable_6	voltage
	7	#internal_variable_7	voltage
	8	#internal_variable_8	voltage
Values:
0		0.000000000000000e+00,0.000000000000000e+00
	0.000000000000000e+00,0.000000000000000e+00
	0.000000000000000e+00,0.000000000000000e+00
	0.000000000000000e+00,0.000000000000000e+00
	0.000000000000000e+00,0.000000000000000e+00
	0.000000000000000e+00,0.000000000000000e+00
	0.000000000000000e+00,0.000000000000000e+00
	0.000000000000000e+00,0.000000000000000e+00
	0.000000000000000e+00,0.000000000000000e+00
1		0.000000000000000e+00,0.000000000000000e+00
	-1.257192633258050e-17,0.000000000000000e+00
	-2.640104529841910e-16,0.000000000000000e+00
	6.455390174291560e+00,0.000000000000000e+00
	-6.455390174291570e+00,0.000000000000000e+00
	-6.455390174291830e-03,0.000000000000000e+00
	-6.461845564465860e+00,0.000000000000000e+00
	-6.455390174291560e-03,0.000000000000000e+00
	-6.461845564465860e+00,0.000000000000000e+00
2		0.000000000000000e+00,0.000000000000000e+00
	0.000000000000000e+00,0.000000000000000e+00
	0.000000000000000e+00,0.000000000000000e+00
	0.000000000000000e+00,0.000000000000000e+00
	0.000000000000000e+00,0.000000000000000e+00
	0.000000000000000e+00,0.000000000000000e+00
	0.000000000000000e+00,0.000000000000000e+00
	0.000000000000000e+00,0.000000000000000e+00
	0.000000000000000e+00,0.000000000000000e+00
3		1.099999969389710e+08,0.000000000000000e+00
	0.000000000000000e+00,0.000000000000000e+00
	0.000000000000000e+00,0.000000000000000e+00
	0.000000000000000e+00,0.000000000000000e+00
	0.000000000000000e+00,0.000000000000000e+00
	0.000000000000000e+00,0.000000000000000e+00
	0.000000000000000e+00,0.000000000000000e+00
	0.000000000000000e+00,0.000000000000000e+00
	0.000000000000000e+00,0.000000000000000e+00
4		1.099999969389710e+08,0.000000000000000e+00
	-7.345576817050370e-07,-1.999773116490260e-01
	-7.328906509625510e-07,-1.995234761994370e-01
	-3.664453254268910e-07,-9.976173809971840e-02
	-3.664453255052520e-07,-9.976173809971831e-02
	-7.324738932769640e-07,-1.994100173370390e-01
	-3.668620831909080e-07,-9.987519696211559e-02
	-4.167576856651980e-10,-1.134588623972380e-04
	-3.660285678196740e-07,-9.964827923732110e-02
5		1.099999969389710e+08,0.000000000000000e+00
	0.000000000000000e+00,0.000000000000000e+00
	0.000000000000000e+00,0.000000000000000e+00
	0.000000000000000e+00,0.000000000000000e+00
	0.000000000000000e+00,0.000000000000000e+00
	0.000000000000000e+00,0.000000000000000e+00
	0.000000000000000e+00,0.000000000000000e+00
	0.000000000000000e+00,0.000000000000000e+00
	0.000000000000000e+00,0.000000000000000e+00
6		9.999999721724661e+07,0.000000000000000e+00
	0.000000000000000e+00,0.000000000000000e+00
	0.000000000000000e+00,0.000000000000000e+00
	0.000000000000000e+00,0.000000000000000e+00
	0.000000000000000e+00,0.000000000000000e+00
	0.000000000000000e+00,0.000000000000000e+00
	0.000000000000000e+00,0.000000000000000e+00
	0.000000000000000e+00,0.000000000000000e+00
	0.000000000000000e+00,0.000000000000000e+00
7		9.999999721724661e+07,0.000000000000000e+00
	-5.509276616587310e-05,-1.499856817796310e+01
	-5.498653962009470e-05,-1.496992660496710e+01
	-2.749326980992890e-05,-7.484963302483530e+00
	-2.749326980997280e-05,-7.484963302483530e+00
	-5.495998298364950e-05,-1.496276621171810e+01
	-2.751982644641690e-05,-7.492123695732540e+00
	-2.655663644521550e-08,-7.160393249002410e-03
	-2.746671317352880e-05,-7.477802909234530e+00
8		9.999999721724661e+07,0.000000000000000e+00
	0.000000000000000e+00,0.000000000000000e+00
	0.000000000000000e+00,0.000000000000000e+00
	0.000000000000000e+00,0.000000000000000e+00
	0.000000000000000e+00,0.000000000000000e+00
	0.000000000000000e+00,0.000000000000000e+00
	0.000000000000000e+00,0.000000000000000e+00
	0.000000000000000e+00,0.000000000000000e+00
	0.000000000000000e+00,0.000000000000000e+00
9		2.099999941562180e+08,0.000000000000000e+00
	0.000000000000000e+00,0.000000000000000e+00
	0.000000000000000e+00,0.000000000000000e+00
	0.000000000000000e+00,0.000000000000000e+00
	0.000000000000000e+00,0.000000000000000e+00
	0.000000000000000e+00,0.000000000000000e+00
	0.000000000000000e+00,0.000000000000000e+00
	0.000000000000000e+00,0.000000000000000e+00
	0.000000000000000e+00,0.000000000000000e+00
10		2.099999941562180e+08,0.000000000000000e+00
	3.913793866931840e-19,-2.712578407623290e-20
	8.218967120556860e-18,-5.696414656008910e-19
	-6.252416761985299e-02,4.651863674643430e-07
	6.252416761985299e-02,-4.651863673785090e-07
	6.252416761986120e-05,-4.651863682281990e-10
	6.258669178747280e-02,-4.656515537458960e-07
	6.252416761985289e-05,-4.651863671842940e-10
	6.258669178747280e-02,-4.656515537459640e-07
11		2.099999941562180e+08,0.000000000000000e+00
	0.000000000000000e+00,0.000000000000000e+00
	0.000000000000000e+00,0.000000000000000e+00
	0.000000000000000e+00,0.000000000000000e+00
	0.000000000000000e+00,0.000000000000000e+00
	0.000000000000000e+00,0.000000000000000e+00
	0.000000000000000e+00,0.000000000000000e+00
	0.000000000000000e+00,0.000000000000000e+00
	0.000000000000000e+00,0.000000000000000e+00
12		-9.999999721724650e+06,0.000000000000000e+00
	0.000000000000000e+00,0.000000000000000e+00
	0.000000000000000e+00,0.000000000000000e+00
	0.000000000000000e+00,0.000000000000000e+00
	0.000000000000000e+00,0.000000000000000e+00
	0.000000000000000e+00,0.000000000000000e+00
	0.000000000000000e+00,0.000000000000000e+00
	0.000000000000000e+00,0.000000000000000e+00
	0.000000000000000e+00,0.000000000000000e+00
13		-9.999999721724650e+06,0.000000000000000e+00
	-3.191720688440620e-19,1.618267159959990e-20
	-6.702613445725310e-18,3.398361035915970e-19
	6.252416762158430e-02,-5.858183949904160e-09
	-6.252416762158430e-02,5.858183984951080e-09
	-6.252416762159090e-05,5.858184518682480e-12
	-6.258669178920589e-02,5.864042168968100e-09
	-6.252416762158440e-05,5.858183756008870e-12
	-6.258669178920589e-02,5.864042168868920e-09
14		-9.999999721724650e+06,0.000000000000000e+00
	0.000000000000000e+00,0.000000000000000e+00
	0.000000000000000e+00,0.000000000000000e+00
	0.000000000000000e+00,0.000000000000000e+00
	0.000000000000000e+00,0.000000000000000e+00
	0.000000000000000e+00,0.000000000000000e+00
	0.000000000000000e+00,0.000000000000000e+00
	0.000000000000000e+00,0.000000000000000e+00
	0.000000000000000e+00,0.000000000000000e+00
15		1.999999944344930e+08,0.000000000000000e+00
	0.000000000000000e+00,0.000000000000000e+00
	0.000000000000000e+00,0.000000000000000e+00
	0.000000000000000e+00,0.000000000000000e+00
	0.000000000000000e+00,0.000000000000000e+00
	0.000000000000000e+00,0.000000000000000e+00
	0.000000000000000e+00,0.000000000000000e+00
	0.000000000000000e+00,0.000000000000000e+00
	0.000000000000000e+00,0.000000000000000e+00
16		1.999999944344930e+08,0.000000000000000e+00
	4.881379225557700e-22,1.128968484671980e-21
	1.025089637367120e-20,2.370833817811170e-20
	-2.961538895253130e+00,2.175682421042130e-05
	2.961538895253130e+00,-2.175682421035440e-05
	2.961538895253130e-03,-2.175682421034880e-08
	2.964500434148380e+00,-2.177858103456480e-05
	2.961538895253130e-03,-2.175682421040320e-08
	2.964500434148380e+00,-2.177858103456480e-05
17		1.999999944344930e+08,0.000000000000000e+00
	0.000000000000000e+00,0.000000000000000e+00
	0.000000000000000e+00,0.000000000000000e+00
	0.000000000000000e+00,0.000000000000000e+00
	0.000000000000000e+00,0.000000000000000e+00
	0.000000000000000e+00,0.000000000000000e+00
	0.000000000000000e+00,0.000000000000000e+00
	0.000000000000000e+00,0.000000000000000e+00
	0.000000000000000e+00,0.000000000000000e+00
18		3.099999913734640e+08,0.000000000000000e+00
	0.000000000000000e+00,0.000000000000000e+00
	0.000000000000000e+00,0.000000000000000e+00
	0.000000000000000e+00,0.000000000000000e+00
	0.000000000000000e+00,0.000000000000000e+00
	0.000000000000000e+00,0.000000000000000e+00
	0.000000000000000e+00,0.000000000000000e+00
	0.000000000000000e+00,0.000000000000000e+00
	0.000000000000000e+00,0.000000000000000e+00
19		3.099999913734640e+08,0.000000000000000e+00
	2.819230453084600e-11,3.540741815555760e-06
	5.920383951477670e-10,7.435557812667090e-05
	2.960191664230120e-10,3.717778906335780e-05
	2.960192103782300e-10,3.717778906332010e-05
	7.329999178906060e-10,9.205928720445031e-05
	1.550576878126090e-10,1.947407998554200e-05
	-1.409615226988840e-10,-1.770370907777950e-05
	4.369807329878060e-10,5.488149814109820e-05
20		3.099999913734640e+08,0.000000000000000e+00
	0.000000000000000e+00,0.000000000000000e+00
	0.000000000000000e+00,0.000000000000000e+00
	0.000000000000000e+00,0.000000000000000e+00
	0.000000000000000e+00,0.000000000000000e+00
	0.000000000000000e+00,0.000000000000000e+00
	0.000000000000000e+00,0.000000000000000e+00
	0.000000000000000e+00,0.000000000000000e+00
	0.000000000000000e+00,0.000000000000000e+00
21		8.999999749552190e+07,0.000000000000000e+00
	0.000000000000000e+00,0.000000000000000e+00
	0.000000000000000e+00,0.000000000000000e+00
	0.000000000000000e+00,0.000000000000000e+00
	0.000000000000000e+00,0.000000000000000e+00
	0.000000000000000e+00,0.000000000000000e+00
	0.000000000000000e+00,0.000000000000000e+00
	0.000000000000000e+00,0.000000000000000e+00
	0.000000000000000e+00,0.000000000000000e+00
22		8.999999749552190e+07,0.000000000000000e+00
	-2.180556687260050e-12,-3.540741815667360e-06
	-4.579169043246110e-11,-7.435557812901459e-05
	-2.289588716805200e-11,-3.717778906450600e-05
	-2.289584895409920e-11,-3.717778906447870e-05
	-5.669447376595930e-11,-9.205928720735230e-05
	-1.199306541499680e-11,-1.947407998614260e-05
	1.090278337171210e-11,1.770370907833770e-05
	-3.379863245498770e-11,-5.488149814281460e-05
23		8.999999749552190e+07,0.000000000000000e+00
	0.000000000000000e+00,0.000000000000000e+00
	0.000000000000000e+00,0.000000000000000e+00
	0.000000000000000e+00,0.000000000000000e+00
	0.000000000000000e+00,0.000000000000000e+00
	0.000000000000000e+00,0.000000000000000e+00
	0.000000000000000e+00,0.000000000000000e+00
	0.000000000000000e+00,0.000000000000000e+00
	0.000000000000000e+00,0.000000000000000e+00
24		2.999999916517400e+08,0.000000000000000e+00
	0.000000000000000e+00,0.000000000000000e+00
	0.000000000000000e+00,0.000000000000000e+00
	0.000000000000000e+00,0.000000000000000e+00
	0.000000000000000e+00,0.000000000000000e+00
	0.000000000000000e+00,0.000000000000000e+00
	0.000000000000000e+00,0.000000000000000e+00
	0.000000000000000e+00,0.000000000000000e+00
	0.000000000000000e+00,0.000000000000000e+00
25		2.999999916517400e+08,0.000000000000000e+00
	3.231956574720370e-10,2.303475318753570e-05
	6.787108806912770e-09,4.837298169382500e-04
	3.393554492580120e-09,2.418649084691710e-04
	3.393554463018930e-09,2.418649084690270e-04
	8.403087095020150e-09,5.989035828759520e-04
	1.777576176405940e-09,1.266911425313710e-04
	-1.615978288136940e-09,-1.151737659377020e-04
	5.009532749602360e-09,3.570386744066820e-04
26		2.999999916517400e+08,0.000000000000000e+00
	0.000000000000000e+00,0.000000000000000e+00
	0.000000000000000e+00,0.000000000000000e+00
	0.000000000000000e+00,0.000000000000000e+00
	0.000000000000000e+00,0.000000000000000e+00
	0.000000000000000e+00,0.000000000000000e+00
	0.000000000000000e+00,0.000000000000000e+00
	0.000000000000000e+00,0.000000000000000e+00
	0.000000000000000e+00,0.000000000000000e+00
27		4.099999885907110e+08,0.000000000000000e+00
	0.000000000000000e+00,0.000000000000000e+00
	0.000000000000000e+00,0.000000000000000e+00
	0.000000000000000e+00,0.000000000000000e+00
	0.000000000000000e+00,0.000000000000000e+00
	0.000000000000000e+00,0.000000000000000e+00
	0.000000000000000e+00,0.000000000000000e+00
	0.000000000000000e+00,0.000000000000000e+00
	0.000000000000000e+00,0.000000000000000e+00
28		4.099999885907110e+08,0.000000000000000e+00
	1.674002712109510e-19,-4.825452135572180e-20
	3.515405695429970e-18,-1.013344948470160e-18
	-1.721005342895730e-02,2.545403820009820e-07
	1.721005342895720e-02,-2.545403820146510e-07
	1.721005342896080e-05,-2.545403834145610e-10
	1.722726348238620e-02,-2.547949223965700e-07
	1.721005342895720e-05,-2.545403816144160e-10
	1.722726348238620e-02,-2.547949223967480e-07
29		4.099999885907110e+08,0.000000000000000e+00
	0.000000000000000e+00,0.000000000000000e+00
	0.000000000000000e+00,0.000000000000000e+00
	0.000000000000000e+00,0.000000000000000e+00
	0.000000000000000e+00,0.000000000000000e+00
	0.000000000000000e+00,0.000000000000000e+00
	0.000000000000000e+00,0.000000000000000e+00
	0.000000000000000e+00,0.000000000000000e+00
	0.000000000000000e+00,0.000000000000000e+00
30		1.899999947127680e+08,0.000000000000000e+00
	0.000000000000000e+00,0.000000000000000e+00
	0.000000000000000e+00,0.000000000000000e+00
	0.000000000000000e+00,0.000000000000000e+00
	0.000000000000000e+00,0.000000000000000e+00
	0.000000000000000e+00,0.000000000000000e+00
	0.000000000000000e+00,0.000000000000000e+00
	0.000000000000000e+00,0.000000000000000e+00
	0.000000000000000e+00,0.000000000000000e+00
31		1.899999947127680e+08,0.000000000000000e+00
	-1.023937559926010e-19,1.522468825162280e-20
	-2.150268875844620e-18,3.197184532840790e-19
	1.721005343036370e-02,-1.281082697321970e-07
	-1.721005343036360e-02,1.281082697185560e-07
	-1.721005343036560e-05,1.281082702748970e-10
	-1.722726348379400e-02,1.282363779883590e-07
	-1.721005343036390e-05,1.281082694955750e-10
	-1.722726348379400e-02,1.282363779882040e-07
32		1.899999947127680e+08,0.000000000000000e+00
	0.000000000000000e+00,0.000000000000000e+00
	0.000000000000000e+00,0.000000000000000e+00
	0.000000000000000e+00,0.000000000000000e+00
	0.000000000000000e+00,0.000000000000000e+00
	0.000000000000000e+00,0.000000000000000e+00
	0.000000000000000e+00,0.000000000000000e+00
	0.000000000000000e+00,0.000000000000000e+00
	0.000000000000000e+00,0.000000000000000e+00
33		3.999999888689860e+08,0.000000000000000e+00
	0.000000000000000e+00,0.000000000000000e+00
	0.000000000000000e+00,0.000000000000000e+00
	0.000000000000000e+00,0.000000000000000e+00
	0.000000000000000e+00,0.000000000000000e+00
	0.000000000000000e+00,0.000000000000000e+00
	0.000000000000000e+00,0.000000000000000e+00
	0.000000000000000e+00,0.000000000000000e+00
	0.000000000000000e+00,0.000000000000000e+00
34		3.999999888689860e+08,0.000000000000000e+00
	-5.402897928573500e-19,-1.768123205069250e-21
	-1.134608565000430e-17,-3.713058730645430e-20
	-4.548962042581150e-01,6.701854212882180e-06
	4.548962042581120e-01,-6.701854212939500e-06
	4.548962042581020e-04,-6.701854212923590e-09
	4.553511004623700e-01,-6.708556067152370e-06
	4.548962042581140e-04,-6.701854212935220e-09
	4.553511004623700e-01,-6.708556067152450e-06
35		3.999999888689860e+08,0.000000000000000e+00
	0.000000000000000e+00,0.000000000000000e+00
	0.000000000000000e+00,0.000000000000000e+00
	0.000000000000000e+00,0.000000000000000e+00
	0.000000000000000e+00,0.000000000000000e+00
	0.000000000000000e+00,0.000000000000000e+00
	0.000000000000000e+00,0.000000000000000e+00
	0.000000000000000e+00,0.000000000000000e+00
	0.000000000000000e+00,0.000000000000000e+00
36		5.099999858079570e+08,0.000000000000000e+00
	0.000000000000000e+00,0.000000000000000e+00
	0.000000000000000e+00,0.000000000000000e+00
	0.000000000000000e+00,0.000000000000000e+00
	0.000000000000000e+00,0.000000000000000e+00
	0.000000000000000e+00,0.000000000000000e+00
	0.000000000000000e+00,0.000000000000000e+00
	0.000000000000000e+00,0.000000000000000e+00
	0.000000000000000e+00,0.000000000000000e+00
37		5.099999858079570e+08,0.000000000000000e+00
	1.133303186562520e-10,7.873267846884860e-06
	2.379936691781290e-09,1.653386247845820e-04
	1.189968328666970e-09,8.266931239227420e-05
	1.189968344473990e-09,8.266931239224961e-05
	2.946588285155280e-09,2.047049640190070e-04
	6.233167512854520e-10,4.330297315782640e-05
	-5.666515933581800e-10,-3.936633923442550e-05
	1.756619937678330e-09,1.220356516266730e-04
38		5.099999858079570e+08,0.000000000000000e+00
	0.000000000000000e+00,0.000000000000000e+00
	0.000000000000000e+00,0.000000000000000e+00
	0.000000000000000e+00,0.000000000000000e+00
	0.000000000000000e+00,0.000000000000000e+00
	0.000000000000000e+00,0.000000000000000e+00
	0.000000000000000e+00,0.000000000000000e+00
	0.000000000000000e+00,0.000000000000000e+00
	0.000000000000000e+00,0.000000000000000e+00
39		2.899999919300150e+08,0.000000000000000e+00
	0.000000000000000e+00,0.000000000000000e+00
	0.000000000000000e+00,0.000000000000000e+00
	0.000000000000000e+00,0.000000000000000e+00
	0.000000000000000e+00,0.000000000000000e+00
	0.000000000000000e+00,0.000000000000000e+00
	0.000000000000000e+00,0.000000000000000e+00
	0.000000000000000e+00,0.000000000000000e+00
	0.000000000000000e+00,0.000000000000000e+00
40		2.899999919300150e+08,0.000000000000000e+00
	-5.549005348924770e-11,-7.873267847505310e-06
	-1.165291123274200e-09,-1.653386247976110e-04
	-5.826455418163450e-10,-8.266931239879660e-05
	-5.826455618551839e-10,-8.266931239878640e-05
	-1.442741390565450e-09,-2.047049640351400e-04
	-3.051952942539490e-10,-4.330297316126130e-05
	2.774502672712040e-10,3.936633923752800e-05
	-8.600958294764580e-10,-1.220356516363120e-04
41		2.899999919300150e+08,0.000000000000000e+00
	0.000000000000000e+00,0.000000000000000e+00
	0.000000000000000e+00,0.000000000000000e+00
	0.000000000000000e+00,0.000000000000000e+00
	0.000000000000000e+00,0.000000000000000e+00
	0.000000000000000e+00,0.000000000000000e+00
	0.000000000000000e+00,0.000000000000000e+00
	0.000000000000000e+00,0.000000000000000e+00
	0.000000000000000e+00,0.000000000000000e+00
42		4.999999860862330e+08,0.000000000000000e+00
	0.000000000000000e+00,0.000000000000000e+00
	0.000000000000000e+00,0.000000000000000e+00
	0.000000000000000e+00,0.000000000000000e+00
	0.000000000000000e+00,0.000000000000000e+00
	0.000000000000000e+00,0.000000000000000e+00
	0.000000000000000e+00,0.000000000000000e+00
	0.000000000000000e+00,0.000000000000000e+00
	0.000000000000000e+00,0.000000000000000e+00
43		4.999999860862330e+08,0.000000000000000e+00
	1.859508184086710e-09,9.430012002477830e-05
	3.904967186582090e-08,1.980302520520340e-03
	1.952483604296250e-08,9.901512602601070e-04
	1.952483593482970e-08,9.901512602599779e-04
	4.834721278766740e-08,2.451803120644260e-03
	1.022729501580910e-08,5.186506601361130e-04
	-9.297540921954630e-09,-4.715006001239180e-04
	2.882237685374220e-08,1.461651860383840e-03
44		4.999999860862330e+08,0.000000000000000e+00
	0.000000000000000e+00,0.000000000000000e+00
	0.000000000000000e+00,0.000000000000000e+00
	0.000000000000000e+00,0.000000000000000e+00
	0.000000000000000e+00,0.000000000000000e+00
	0.000000000000000e+00,0.000000000000000e+00
	0.000000000000000e+00,0.000000000000000e+00
	0.000000000000000e+00,0.000000000000000e+00
	0.000000000000000e+00,0.000000000000000e+00
45		6.099999830252039e+08,0.000000000000000e+00
	0.000000000000000e+00,0.000000000000000e+00
	0.000000000000000e+00,0.000000000000000e+00
	0.000000000000000e+00,0.000000000000000e+00
	0.000000000000000e+00,0.000000000000000e+00
	0.000000000000000e+00,0.000000000000000e+00
	0.000000000000000e+00,0.000000000000000e+00
	0.000000000000000e+00,0.000000000000000e+00
	0.000000000000000e+00,0.000000000000000e+00
46		6.099999830252039e+08,0.000000000000000e+00
	3.150807082108040e-19,-2.211177067285690e-19
	6.616694872426890e-18,-4.643471841299950e-18
	-5.920559309958970e-03,1.293884035790410e-07
	5.920559309958900e-03,-1.293884035802190e-07
	5.920559309965180e-06,-1.293884096721920e-10
	5.926479869268860e-03,-1.295177919830370e-07
	5.920559309959310e-06,-1.293884021305400e-10
	5.926479869268860e-03,-1.295177919845610e-07
47		6.099999830252039e+08,0.000000000000000e+00
	0.000000000000000e+00,0.000000000000000e+00
	0.000000000000000e+00,0.000000000000000e+00
	0.000000000000000e+00,0.000000000000000e+00
	0.000000000000000e+00,0.000000000000000e+00
