Title: spice test 4-diode bridge circuit                            
Date:  Wed Sep  6 18:56:49 2000 
Plotname:  Harmonic Balance Simulation 
Flags: complex 
No. Variables: 9 
No. Points: 60 
Command:  version 3f5 
Variables:
	0	frequency	frequency
	1	V(1)	voltage
	2	V(2)	voltage
	3	V(3)	voltage
	4	V(4)	voltage
	5	#internal_variable_5	voltage
	6	#internal_variable_6	voltage
	7	#internal_variable_7	voltage
	8	#internal_variable_8	voltage
Values:
0		0.000000000000000e+00,0.000000000000000e+00
	0.000000000000000e+00,0.000000000000000e+00
	0.000000000000000e+00,0.000000000000000e+00
	0.000000000000000e+00,0.000000000000000e+00
	0.000000000000000e+00,0.000000000000000e+00
	0.000000000000000e+00,0.000000000000000e+00
	0.000000000000000e+00,0.000000000000000e+00
	0.000000000000000e+00,0.000000000000000e+00
	0.000000000000000e+00,0.000000000000000e+00
1		0.000000000000000e+00,0.000000000000000e+00
	3.512093930613880e-17,0.000000000000000e+00
	7.375397254289150e-16,0.000000000000000e+00
	6.328198140214020e+00,0.000000000000000e+00
	-6.328198140213500e+00,0.000000000000000e+00
	-6.328198140212960e-03,0.000000000000000e+00
	-6.334526338353710e+00,0.000000000000000e+00
	-6.328198140213820e-03,0.000000000000000e+00
	-6.334526338353710e+00,0.000000000000000e+00
2		0.000000000000000e+00,0.000000000000000e+00
	0.000000000000000e+00,0.000000000000000e+00
	0.000000000000000e+00,0.000000000000000e+00
	0.000000000000000e+00,0.000000000000000e+00
	0.000000000000000e+00,0.000000000000000e+00
	0.000000000000000e+00,0.000000000000000e+00
	0.000000000000000e+00,0.000000000000000e+00
	0.000000000000000e+00,0.000000000000000e+00
	0.000000000000000e+00,0.000000000000000e+00
3		9.999999721724661e+07,0.000000000000000e+00
	0.000000000000000e+00,0.000000000000000e+00
	0.000000000000000e+00,0.000000000000000e+00
	0.000000000000000e+00,0.000000000000000e+00
	0.000000000000000e+00,0.000000000000000e+00
	0.000000000000000e+00,0.000000000000000e+00
	0.000000000000000e+00,0.000000000000000e+00
	0.000000000000000e+00,0.000000000000000e+00
	0.000000000000000e+00,0.000000000000000e+00
4		9.999999721724661e+07,0.000000000000000e+00
	-5.509288526452870e-05,-1.499858237206920e+01
	-5.498904069186230e-05,-1.497022468119570e+01
	-2.749452034589750e-05,-7.485112340597830e+00
	-2.749452034578580e-05,-7.485112340597860e+00
	-5.496307954869550e-05,-1.496313525847730e+01
	-2.752048148895220e-05,-7.492201763316240e+00
	-2.596114316668940e-08,-7.089422718382350e-03
	-2.746855920261930e-05,-7.478022917879480e+00
5		9.999999721724661e+07,0.000000000000000e+00
	0.000000000000000e+00,0.000000000000000e+00
	0.000000000000000e+00,0.000000000000000e+00
	0.000000000000000e+00,0.000000000000000e+00
	0.000000000000000e+00,0.000000000000000e+00
	0.000000000000000e+00,0.000000000000000e+00
	0.000000000000000e+00,0.000000000000000e+00
	0.000000000000000e+00,0.000000000000000e+00
	0.000000000000000e+00,0.000000000000000e+00
6		1.999999944344930e+08,0.000000000000000e+00
	0.000000000000000e+00,0.000000000000000e+00
	0.000000000000000e+00,0.000000000000000e+00
	0.000000000000000e+00,0.000000000000000e+00
	0.000000000000000e+00,0.000000000000000e+00
	0.000000000000000e+00,0.000000000000000e+00
	0.000000000000000e+00,0.000000000000000e+00
	0.000000000000000e+00,0.000000000000000e+00
	0.000000000000000e+00,0.000000000000000e+00
7		1.999999944344930e+08,0.000000000000000e+00
	5.596145941750210e-17,3.112536306424700e-21
	1.175190647767540e-15,6.536326243491860e-20
	-3.125879448926590e+00,2.296485334500330e-05
	3.125879448927320e+00,-2.296485334497540e-05
	3.125879448928220e-03,-2.296485334488950e-08
	3.129005328376250e+00,-2.298781819832040e-05
	3.125879448926870e-03,-2.296485334502380e-08
	3.129005328376250e+00,-2.298781819832040e-05
8		1.999999944344930e+08,0.000000000000000e+00
	0.000000000000000e+00,0.000000000000000e+00
	0.000000000000000e+00,0.000000000000000e+00
	0.000000000000000e+00,0.000000000000000e+00
	0.000000000000000e+00,0.000000000000000e+00
	0.000000000000000e+00,0.000000000000000e+00
	0.000000000000000e+00,0.000000000000000e+00
	0.000000000000000e+00,0.000000000000000e+00
	0.000000000000000e+00,0.000000000000000e+00
9		2.999999916517400e+08,0.000000000000000e+00
	0.000000000000000e+00,0.000000000000000e+00
	0.000000000000000e+00,0.000000000000000e+00
	0.000000000000000e+00,0.000000000000000e+00
	0.000000000000000e+00,0.000000000000000e+00
	0.000000000000000e+00,0.000000000000000e+00
	0.000000000000000e+00,0.000000000000000e+00
	0.000000000000000e+00,0.000000000000000e+00
	0.000000000000000e+00,0.000000000000000e+00
10		2.999999916517400e+08,0.000000000000000e+00
	-2.561159018985280e-10,-2.175023992286260e-05
	-5.378433939869100e-09,-4.567550383801150e-04
	-2.689216997615550e-09,-2.283775191903260e-04
	-2.689216946438380e-09,-2.283775192630300e-04
	-6.659013449191750e-09,-5.655062379944690e-04
	-1.408637436775760e-09,-1.196263196487580e-04
	1.280579509373840e-09,1.087511996142810e-04
	-3.969796456049830e-09,-3.371287188773740e-04
11		2.999999916517400e+08,0.000000000000000e+00
	0.000000000000000e+00,0.000000000000000e+00
	0.000000000000000e+00,0.000000000000000e+00
	0.000000000000000e+00,0.000000000000000e+00
	0.000000000000000e+00,0.000000000000000e+00
	0.000000000000000e+00,0.000000000000000e+00
	0.000000000000000e+00,0.000000000000000e+00
	0.000000000000000e+00,0.000000000000000e+00
	0.000000000000000e+00,0.000000000000000e+00
12		3.999999888689860e+08,0.000000000000000e+00
	0.000000000000000e+00,0.000000000000000e+00
	0.000000000000000e+00,0.000000000000000e+00
	0.000000000000000e+00,0.000000000000000e+00
	0.000000000000000e+00,0.000000000000000e+00
	0.000000000000000e+00,0.000000000000000e+00
	0.000000000000000e+00,0.000000000000000e+00
	0.000000000000000e+00,0.000000000000000e+00
	0.000000000000000e+00,0.000000000000000e+00
13		3.999999888689860e+08,0.000000000000000e+00
	5.751366235263910e-17,5.928723722063820e-21
	1.207786909405420e-15,1.245031981633400e-19
	-6.000149179351120e-01,8.817416409962651e-06
	6.000149179358150e-01,-8.817416410099201e-06
	6.000149179367440e-04,-8.817416409862900e-09
	6.006149328537500e-01,-8.826233826509250e-06
	6.000149179353900e-04,-8.817416410074450e-09
	6.006149328537510e-01,-8.826233826509219e-06
14		3.999999888689860e+08,0.000000000000000e+00
	0.000000000000000e+00,0.000000000000000e+00
	0.000000000000000e+00,0.000000000000000e+00
	0.000000000000000e+00,0.000000000000000e+00
	0.000000000000000e+00,0.000000000000000e+00
	0.000000000000000e+00,0.000000000000000e+00
	0.000000000000000e+00,0.000000000000000e+00
	0.000000000000000e+00,0.000000000000000e+00
	0.000000000000000e+00,0.000000000000000e+00
15		4.999999860862330e+08,0.000000000000000e+00
	0.000000000000000e+00,0.000000000000000e+00
	0.000000000000000e+00,0.000000000000000e+00
	0.000000000000000e+00,0.000000000000000e+00
	0.000000000000000e+00,0.000000000000000e+00
	0.000000000000000e+00,0.000000000000000e+00
	0.000000000000000e+00,0.000000000000000e+00
	0.000000000000000e+00,0.000000000000000e+00
	0.000000000000000e+00,0.000000000000000e+00
16		4.999999860862330e+08,0.000000000000000e+00
	-2.160712038237320e-10,-1.081671865912800e-05
	-4.537495280298380e-09,-2.271510918416880e-04
	-2.268747591624590e-09,-1.135755459214230e-04
	-2.268747525365190e-09,-1.135755460396710e-04
	-5.617851299170950e-09,-2.812346851374120e-04
	-1.188391506000440e-09,-5.949195274411530e-05
	1.080356018938830e-09,5.408359329560570e-05
	-3.349103544663690e-09,-1.676591393353460e-04
17		4.999999860862330e+08,0.000000000000000e+00
	0.000000000000000e+00,0.000000000000000e+00
	0.000000000000000e+00,0.000000000000000e+00
	0.000000000000000e+00,0.000000000000000e+00
	0.000000000000000e+00,0.000000000000000e+00
	0.000000000000000e+00,0.000000000000000e+00
	0.000000000000000e+00,0.000000000000000e+00
	0.000000000000000e+00,0.000000000000000e+00
	0.000000000000000e+00,0.000000000000000e+00
18		5.999999833034790e+08,0.000000000000000e+00
	0.000000000000000e+00,0.000000000000000e+00
	0.000000000000000e+00,0.000000000000000e+00
	0.000000000000000e+00,0.000000000000000e+00
	0.000000000000000e+00,0.000000000000000e+00
	0.000000000000000e+00,0.000000000000000e+00
	0.000000000000000e+00,0.000000000000000e+00
	0.000000000000000e+00,0.000000000000000e+00
	0.000000000000000e+00,0.000000000000000e+00
19		5.999999833034790e+08,0.000000000000000e+00
	5.864149995662039e-17,2.193215816491270e-22
	1.231471499089030e-15,4.605753214631670e-21
	-2.417198020932830e-01,5.329211166225470e-06
	2.417198020939360e-01,-5.329211166311900e-06
	2.417198020948980e-04,-5.329211166241380e-09
	2.419615218960290e-01,-5.334540377478150e-06
	2.417198020935530e-04,-5.329211166291390e-09
	2.419615218960300e-01,-5.334540377478190e-06
20		5.999999833034790e+08,0.000000000000000e+00
	0.000000000000000e+00,0.000000000000000e+00
	0.000000000000000e+00,0.000000000000000e+00
	0.000000000000000e+00,0.000000000000000e+00
	0.000000000000000e+00,0.000000000000000e+00
	0.000000000000000e+00,0.000000000000000e+00
	0.000000000000000e+00,0.000000000000000e+00
	0.000000000000000e+00,0.000000000000000e+00
	0.000000000000000e+00,0.000000000000000e+00
21		6.999999805207260e+08,0.000000000000000e+00
	0.000000000000000e+00,0.000000000000000e+00
	0.000000000000000e+00,0.000000000000000e+00
	0.000000000000000e+00,0.000000000000000e+00
	0.000000000000000e+00,0.000000000000000e+00
	0.000000000000000e+00,0.000000000000000e+00
	0.000000000000000e+00,0.000000000000000e+00
	0.000000000000000e+00,0.000000000000000e+00
	0.000000000000000e+00,0.000000000000000e+00
22		6.999999805207260e+08,0.000000000000000e+00
	-1.616326631328380e-10,-5.549403146185030e-06
	-3.394285925789610e-09,-1.165374660698860e-04
	-1.697142913200850e-09,-5.826873303599090e-05
	-1.697142973203790e-09,-5.826873319143050e-05
	-4.202449241162130e-09,-1.442844818009390e-04
	-8.889796572479319e-10,-3.052171746063310e-05
	8.081633153125240e-10,2.774701573089750e-05
	-2.505306289219650e-09,-8.601574892238340e-05
23		6.999999805207260e+08,0.000000000000000e+00
	0.000000000000000e+00,0.000000000000000e+00
	0.000000000000000e+00,0.000000000000000e+00
	0.000000000000000e+00,0.000000000000000e+00
	0.000000000000000e+00,0.000000000000000e+00
	0.000000000000000e+00,0.000000000000000e+00
	0.000000000000000e+00,0.000000000000000e+00
	0.000000000000000e+00,0.000000000000000e+00
	0.000000000000000e+00,0.000000000000000e+00
24		7.999999777379720e+08,0.000000000000000e+00
	0.000000000000000e+00,0.000000000000000e+00
	0.000000000000000e+00,0.000000000000000e+00
	0.000000000000000e+00,0.000000000000000e+00
	0.000000000000000e+00,0.000000000000000e+00
	0.000000000000000e+00,0.000000000000000e+00
	0.000000000000000e+00,0.000000000000000e+00
	0.000000000000000e+00,0.000000000000000e+00
	0.000000000000000e+00,0.000000000000000e+00
25		7.999999777379720e+08,0.000000000000000e+00
	6.008293606033300e-17,1.580893031866010e-20
	1.261741657266990e-15,3.319875366918620e-19
	-1.233816263449570e-01,3.627649805836280e-06
	1.233816263455420e-01,-3.627649805932640e-06
	1.233816263465450e-04,-3.627649805416300e-09
	1.235050079718860e-01,-3.631277455738550e-06
	1.233816263452150e-04,-3.627649806020640e-09
	1.235050079718870e-01,-3.631277455738510e-06
26		7.999999777379720e+08,0.000000000000000e+00
	0.000000000000000e+00,0.000000000000000e+00
	0.000000000000000e+00,0.000000000000000e+00
	0.000000000000000e+00,0.000000000000000e+00
	0.000000000000000e+00,0.000000000000000e+00
	0.000000000000000e+00,0.000000000000000e+00
	0.000000000000000e+00,0.000000000000000e+00
	0.000000000000000e+00,0.000000000000000e+00
	0.000000000000000e+00,0.000000000000000e+00
27		8.999999749552190e+08,0.000000000000000e+00
	0.000000000000000e+00,0.000000000000000e+00
	0.000000000000000e+00,0.000000000000000e+00
	0.000000000000000e+00,0.000000000000000e+00
	0.000000000000000e+00,0.000000000000000e+00
	0.000000000000000e+00,0.000000000000000e+00
	0.000000000000000e+00,0.000000000000000e+00
	0.000000000000000e+00,0.000000000000000e+00
	0.000000000000000e+00,0.000000000000000e+00
28		8.999999749552190e+08,0.000000000000000e+00
	-8.425964319475570e-11,-1.908094489791100e-06
	-1.769452507089870e-09,-4.006998428561310e-05
	-8.847262219789050e-10,-2.003499214396380e-05
	-8.847260692767080e-10,-2.003499232489010e-05
	-2.190750722783360e-09,-4.961045673474010e-05
	-4.634278530226420e-10,-1.049451987610610e-05
	4.212982158461930e-10,9.540472448946079e-06
	-1.306024285378070e-09,-2.957546477385500e-05
29		8.999999749552190e+08,0.000000000000000e+00
	0.000000000000000e+00,0.000000000000000e+00
	0.000000000000000e+00,0.000000000000000e+00
	0.000000000000000e+00,0.000000000000000e+00
	0.000000000000000e+00,0.000000000000000e+00
	0.000000000000000e+00,0.000000000000000e+00
	0.000000000000000e+00,0.000000000000000e+00
	0.000000000000000e+00,0.000000000000000e+00
	0.000000000000000e+00,0.000000000000000e+00
30		9.999999721724660e+08,0.000000000000000e+00
	0.000000000000000e+00,0.000000000000000e+00
	0.000000000000000e+00,0.000000000000000e+00
	0.000000000000000e+00,0.000000000000000e+00
	0.000000000000000e+00,0.000000000000000e+00
	0.000000000000000e+00,0.000000000000000e+00
	0.000000000000000e+00,0.000000000000000e+00
	0.000000000000000e+00,0.000000000000000e+00
	0.000000000000000e+00,0.000000000000000e+00
31		9.999999721724660e+08,0.000000000000000e+00
	6.419086447309050e-17,-5.623381508152730e-21
	1.348008153934900e-15,-1.180910116712070e-19
	-7.026657125113429e-02,2.582853260597520e-06
	7.026657125163420e-02,-2.582853260680940e-06
	7.026657125273920e-05,-2.582853260742590e-09
	7.033683782288490e-02,-2.585436113941510e-06
	7.026657125137730e-05,-2.582853260653960e-09
	7.033683782288620e-02,-2.585436113941650e-06
32		9.999999721724660e+08,0.000000000000000e+00
	0.000000000000000e+00,0.000000000000000e+00
	0.000000000000000e+00,0.000000000000000e+00
	0.000000000000000e+00,0.000000000000000e+00
	0.000000000000000e+00,0.000000000000000e+00
	0.000000000000000e+00,0.000000000000000e+00
	0.000000000000000e+00,0.000000000000000e+00
	0.000000000000000e+00,0.000000000000000e+00
	0.000000000000000e+00,0.000000000000000e+00
33		1.099999969389710e+09,0.000000000000000e+00
	0.000000000000000e+00,0.000000000000000e+00
	0.000000000000000e+00,0.000000000000000e+00
	0.000000000000000e+00,0.000000000000000e+00
	0.000000000000000e+00,0.000000000000000e+00
	0.000000000000000e+00,0.000000000000000e+00
	0.000000000000000e+00,0.000000000000000e+00
	0.000000000000000e+00,0.000000000000000e+00
	0.000000000000000e+00,0.000000000000000e+00
34		1.099999969389710e+09,0.000000000000000e+00
	3.129912849113570e-11,1.377960038723140e-06
	6.572816983138490e-10,2.893716081318600e-05
	3.286408575010340e-10,1.446858040527030e-05
	3.286409535395400e-10,1.446858021335770e-05
	8.137773411737290e-10,3.582696100657670e-05
	1.721453114880630e-10,7.578780019516970e-06
	-1.564956427638410e-10,-6.889800193582620e-06
	4.851365956870551e-10,2.135838040700650e-05
35		1.099999969389710e+09,0.000000000000000e+00
	0.000000000000000e+00,0.000000000000000e+00
	0.000000000000000e+00,0.000000000000000e+00
	0.000000000000000e+00,0.000000000000000e+00
	0.000000000000000e+00,0.000000000000000e+00
	0.000000000000000e+00,0.000000000000000e+00
	0.000000000000000e+00,0.000000000000000e+00
	0.000000000000000e+00,0.000000000000000e+00
	0.000000000000000e+00,0.000000000000000e+00
36		1.199999966606960e+09,0.000000000000000e+00
	0.000000000000000e+00,0.000000000000000e+00
	0.000000000000000e+00,0.000000000000000e+00
	0.000000000000000e+00,0.000000000000000e+00
	0.000000000000000e+00,0.000000000000000e+00
	0.000000000000000e+00,0.000000000000000e+00
	0.000000000000000e+00,0.000000000000000e+00
	0.000000000000000e+00,0.000000000000000e+00
	0.000000000000000e+00,0.000000000000000e+00
37		1.199999966606960e+09,0.000000000000000e+00
	7.346505511653990e-17,-1.144997496077930e-20
	1.542766157447340e-15,-2.404494741763660e-19
	-4.214005350860290e-02,1.858814069591400e-06
	4.214005350900820e-02,-1.858814069771390e-06
	4.214005351032570e-05,-1.858814069921390e-09
	4.218219356251620e-02,-1.860672883840950e-06
	4.214005350882810e-05,-1.858814069681840e-09
	4.218219356251770e-02,-1.860672883841180e-06
38		1.199999966606960e+09,0.000000000000000e+00
	0.000000000000000e+00,0.000000000000000e+00
	0.000000000000000e+00,0.000000000000000e+00
	0.000000000000000e+00,0.000000000000000e+00
	0.000000000000000e+00,0.000000000000000e+00
	0.000000000000000e+00,0.000000000000000e+00
	0.000000000000000e+00,0.000000000000000e+00
	0.000000000000000e+00,0.000000000000000e+00
	0.000000000000000e+00,0.000000000000000e+00
39		1.299999963824210e+09,0.000000000000000e+00
	0.000000000000000e+00,0.000000000000000e+00
	0.000000000000000e+00,0.000000000000000e+00
	0.000000000000000e+00,0.000000000000000e+00
	0.000000000000000e+00,0.000000000000000e+00
	0.000000000000000e+00,0.000000000000000e+00
	0.000000000000000e+00,0.000000000000000e+00
	0.000000000000000e+00,0.000000000000000e+00
	0.000000000000000e+00,0.000000000000000e+00
40		1.299999963824210e+09,0.000000000000000e+00
	2.187933794113640e-10,5.189810287562250e-06
	4.594660967638650e-09,1.089860160388070e-04
	2.297330594737650e-09,5.449300801814390e-05
	2.297330522757730e-09,5.449300782988190e-05
	5.688627865123240e-09,1.349350674763120e-04
	1.203363626128680e-09,2.854395639176450e-05
	-1.093966897556570e-09,-2.594905143769340e-05
	3.391297419314800e-09,8.044205926781100e-05
41		1.299999963824210e+09,0.000000000000000e+00
	0.000000000000000e+00,0.000000000000000e+00
	0.000000000000000e+00,0.000000000000000e+00
	0.000000000000000e+00,0.000000000000000e+00
	0.000000000000000e+00,0.000000000000000e+00
	0.000000000000000e+00,0.000000000000000e+00
	0.000000000000000e+00,0.000000000000000e+00
	0.000000000000000e+00,0.000000000000000e+00
	0.000000000000000e+00,0.000000000000000e+00
42		1.399999961041450e+09,0.000000000000000e+00
	0.000000000000000e+00,0.000000000000000e+00
	0.000000000000000e+00,0.000000000000000e+00
	0.000000000000000e+00,0.000000000000000e+00
	0.000000000000000e+00,0.000000000000000e+00
	0.000000000000000e+00,0.000000000000000e+00
	0.000000000000000e+00,0.000000000000000e+00
	0.000000000000000e+00,0.000000000000000e+00
	0.000000000000000e+00,0.000000000000000e+00
43		1.399999961041450e+09,0.000000000000000e+00
	9.311382105723150e-17,7.071425334914549e-21
	1.955390242201860e-15,1.484999320332060e-19
	-2.560838030720950e-02,1.317533630410520e-06
	2.560838030751640e-02,-1.317533630592810e-06
	2.560838030926430e-05,-1.317533630160760e-09
	2.563398868782280e-02,-1.318851164223190e-06
	2.560838030741700e-05,-1.317533630694070e-09
	2.563398868782480e-02,-1.318851164223430e-06
44		1.399999961041450e+09,0.000000000000000e+00
	0.000000000000000e+00,0.000000000000000e+00
	0.000000000000000e+00,0.000000000000000e+00
	0.000000000000000e+00,0.000000000000000e+00
	0.000000000000000e+00,0.000000000000000e+00
	0.000000000000000e+00,0.000000000000000e+00
	0.000000000000000e+00,0.000000000000000e+00
	0.000000000000000e+00,0.000000000000000e+00
	0.000000000000000e+00,0.000000000000000e+00
45		1.499999958258700e+09,0.000000000000000e+00
	0.000000000000000e+00,0.000000000000000e+00
	0.000000000000000e+00,0.000000000000000e+00
	0.000000000000000e+00,0.000000000000000e+00
	0.000000000000000e+00,0.000000000000000e+00
	0.000000000000000e+00,0.000000000000000e+00
	0.000000000000000e+00,0.000000000000000e+00
	0.000000000000000e+00,0.000000000000000e+00
	0.000000000000000e+00,0.000000000000000e+00
46		1.499999958258700e+09,0.000000000000000e+00
	5.686803358326030e-10,1.097720086837130e-05
	1.194228705248470e-08,2.305212182357980e-04
	5.971143566590350e-09,1.152606091165480e-04
	5.971143583382730e-09,1.152606089478850e-04
	1.478568873234950e-08,2.854072225771900e-04
	3.127741904921510e-09,6.037460460556310e-05
	-2.843401679848020e-09,-5.488600434156030e-05
	8.814545261860751e-09,1.701466132900380e-04
47		1.499999958258700e+09,0.000000000000000e+00
	0.000000000000000e+00,0.000000000000000e+00
	0.000000000000000e+00,0.000000000000000e+00
	0.000000000000000e+00,0.000000000000000e+00
	0.000000000000000e+00,0.000000000000000e+00
